 (000.000000)  can0  RX - -  0757F80B   [8]  01 10 10 00 02 02 00 00
 (000.136050)  can0  RX - -  0757F803   [8]  01 10 10 00 01 01 00 00
 (000.395078)  can0  RX - -  0757F80B   [8]  01 10 10 00 02 02 00 00
 (000.531223)  can0  RX - -  075D0003   [8]  10 F0 03 C0 02 00 00 00
 (000.580310)  can0  RX - -  0757F80B   [8]  02 F0 00 02 02 02 00 00
 (000.789997)  can0  RX - -  0757F80B   [8]  01 10 10 00 02 02 00 00
 (000.926150)  can0  RX - -  0757F803   [8]  01 10 10 00 01 01 00 00
 (001.185118)  can0  RX - -  075D000B   [8]  10 F0 03 C0 02 00 00 00
 (001.321114)  can0  RX - -  075D0003   [8]  A0 01 10 08 01 80 04 81
 (001.580102)  can0  RX - -  0757F80B   [8]  01 10 10 00 02 02 00 00
 (001.716098)  can0  RX - -  0757F803   [8]  01 10 10 00 01 01 00 00
 (001.975077)  can0  RX - -  075D000B   [8]  A0 01 10 08 01 80 04 81
 (002.111100)  can0  RX - -  0757F803   [8]  01 10 10 00 01 01 00 00
 (002.370048)  can0  RX - -  0757F80B   [8]  01 10 10 00 02 02 00 00
 (002.506125)  can0  RX - -  0757F803   [8]  01 10 10 00 01 01 00 00
 (002.765010)  can0  RX - -  0757F80B   [8]  01 10 10 00 02 02 00 00
 (002.901190)  can0  RX - -  0757F803   [8]  01 10 10 00 01 01 00 00
 (002.961638)  can0  RX - -  0757F803   [8]  02 F0 00 02 01 01 00 00
 (003.160488)  can0  RX - -  0757F80B   [8]  01 10 10 00 02 02 00 00
 (003.296570)  can0  RX - -  0757F803   [8]  01 10 10 00 01 01 00 00
 (003.555114)  can0  RX - -  0757F80B   [8]  01 10 10 00 02 02 00 00
 (003.615521)  can0  RX - -  0757F80B   [8]  02 F0 00 02 02 02 00 00
 (003.691215)  can0  RX - -  0757F803   [8]  01 10 10 00 01 01 00 00
 (003.950038)  can0  RX - -  0757F80B   [8]  01 10 10 00 02 02 00 00
 (004.086141)  can0  RX - -  0757F803   [8]  01 10 10 00 01 01 00 00
 (004.345124)  can0  RX - -  0757F80B   [8]  01 10 10 00 02 02 00 00
 (004.481364)  can0  RX - -  075D0003   [8]  10 F0 03 C0 02 00 00 00
 (004.740068)  can0  RX - -  0757F80B   [8]  01 10 10 00 02 02 00 00
 (004.876153)  can0  RX - -  0757F803   [8]  01 10 10 00 01 01 00 00
 (005.135253)  can0  RX - -  075D000B   [8]  10 F0 03 C0 02 00 00 00
 (005.271242)  can0  RX - -  0757F803   [8]  01 10 10 00 01 01 00 00
 (005.530085)  can0  RX - -  0757F80B   [8]  01 10 10 00 02 02 00 00
 (005.666162)  can0  RX - -  0757F803   [8]  01 10 10 00 01 01 00 00
 (005.925143)  can0  RX - -  0757F80B   [8]  01 10 10 00 02 02 00 00
 (005.996476)  can0  RX - -  0757F803   [8]  02 F0 00 02 01 01 00 00
 (006.061406)  can0  RX - -  0757F803   [8]  01 10 10 00 01 01 00 00
 (006.320097)  can0  RX - -  0757F80B   [8]  01 10 10 00 02 02 00 00
 (006.456169)  can0  RX - -  0757F803   [8]  01 10 10 00 01 01 00 00
 (006.650517)  can0  RX - -  0757F80B   [8]  02 F0 00 02 02 02 00 00
 (006.715334)  can0  RX - -  0757F80B   [8]  01 10 10 00 02 02 00 00
 (006.851150)  can0  RX - -  0757F803   [8]  01 10 10 00 01 01 00 00
 (007.110069)  can0  RX - -  0757F80B   [8]  01 10 10 00 02 02 00 00
 (007.246167)  can0  RX - -  0757F803   [8]  01 10 10 00 01 01 00 00
 (007.505073)  can0  RX - -  0757F80B   [8]  01 10 10 00 02 02 00 00
 (007.641185)  can0  RX - -  075D0003   [8]  A0 01 10 08 01 80 04 81
 (007.900074)  can0  RX - -  0757F80B   [8]  01 10 10 00 02 02 00 00
 (008.036165)  can0  RX - -  0757F803   [8]  01 10 10 00 01 01 00 00
 (008.295136)  can0  RX - -  075D000B   [8]  A0 01 10 08 01 80 04 81
 (008.431298)  can0  RX - -  075D0003   [8]  10 F0 03 C0 02 00 00 00
 (008.690156)  can0  RX - -  0757F80B   [8]  01 10 10 00 02 02 00 00
 (008.826209)  can0  RX - -  0757F803   [8]  01 10 10 00 01 01 00 00
 (009.031618)  can0  RX - -  0757F803   [8]  02 F0 00 02 01 01 00 00
 (009.085242)  can0  RX - -  075D000B   [8]  10 F0 03 C0 02 00 00 00
 (009.221293)  can0  RX - -  0757F803   [8]  01 10 10 00 01 01 00 00
 (009.480130)  can0  RX - -  0757F80B   [8]  01 10 10 00 02 02 00 00
 (009.616281)  can0  RX - -  0757F803   [8]  01 10 10 00 01 01 00 00
 (009.685610)  can0  RX - -  0757F80B   [8]  02 F0 00 02 02 02 00 00
 (009.875197)  can0  RX - -  0757F80B   [8]  01 10 10 00 02 02 00 00
 (010.011204)  can0  RX - -  0757F803   [8]  01 10 10 00 01 01 00 00
 (010.270236)  can0  RX - -  0757F80B   [8]  01 10 10 00 02 02 00 00
 (010.406213)  can0  RX - -  0757F803   [8]  01 10 10 00 01 01 00 00
 (010.665149)  can0  RX - -  0757F80B   [8]  01 10 10 00 02 02 00 00
 (010.801236)  can0  RX - -  075D0003   [8]  A0 01 10 08 01 80 04 81
 (011.060148)  can0  RX - -  0757F80B   [8]  01 10 10 00 02 02 00 00
 (011.196201)  can0  RX - -  0757F803   [8]  01 10 10 00 01 01 00 00
 (011.455188)  can0  RX - -  075D000B   [8]  A0 01 10 08 01 80 04 81
 (011.591246)  can0  RX - -  0757F803   [8]  01 10 10 00 01 01 00 00
 (011.850171)  can0  RX - -  0757F80B   [8]  01 10 10 00 02 02 00 00
 (011.986230)  can0  RX - -  0757F803   [8]  01 10 10 00 01 01 00 00
 (012.066575)  can0  RX - -  0757F803   [8]  02 F0 00 02 01 01 00 00
 (012.245192)  can0  RX - -  0757F80B   [8]  01 10 10 00 02 02 00 00
 (012.381440)  can0  RX - -  075D0003   [8]  10 F0 03 C0 02 00 00 00
 (012.640185)  can0  RX - -  0757F80B   [8]  01 10 10 00 02 02 00 00
 (012.720501)  can0  RX - -  0757F80B   [8]  02 F0 00 02 02 02 00 00
 (012.776258)  can0  RX - -  0757F803   [8]  01 10 10 00 01 01 00 00
 (012.813100)  can0  TX - -  06080F81   [8]  10 00 00 43 00 00 00 00
 (012.814546)  can0  RX - -  060F8009   [8]  42 F0 00 43 00 01 00 01
 (012.815533)  can0  TX - -  06080F81   [8]  10 00 00 4B 00 00 00 00
 (012.817045)  can0  RX - -  060F8009   [8]  42 F0 00 4B 00 00 00 03
 (012.818017)  can0  TX - -  06080F81   [8]  10 00 00 12 00 00 00 00
 (012.819499)  can0  RX - -  060F8009   [8]  41 F0 00 12 41 F0 00 00
 (012.820507)  can0  TX - -  06080F81   [8]  10 00 00 40 00 00 00 00
 (012.822024)  can0  RX - -  060F8009   [8]  42 F0 00 40 00 40 00 00
 (012.823015)  can0  TX - -  06080F81   [8]  10 00 00 48 00 00 00 00
 (012.824507)  can0  RX - -  060F8009   [8]  42 F0 00 48 00 00 00 00
 (012.825510)  can0  TX - -  06080F81   [8]  10 00 00 01 00 00 00 00
 (012.826971)  can0  RX - -  060F8009   [8]  41 F0 00 01 40 90 90 00
 (012.827974)  can0  TX - -  06080F81   [8]  10 00 00 02 00 00 00 00
 (012.829487)  can0  RX - -  060F8009   [8]  41 F0 00 02 00 00 00 00
 (012.830483)  can0  TX - -  06080F81   [8]  10 00 00 03 00 00 00 00
 (012.831972)  can0  RX - -  060F8009   [8]  41 F0 00 03 3E 88 80 00
 (012.832983)  can0  TX - -  06080F81   [8]  10 00 00 04 00 00 00 00
 (012.834483)  can0  RX - -  060F8009   [8]  41 F0 00 04 42 45 00 00
 (013.035374)  can0  RX - -  075D000B   [8]  10 F0 03 C0 02 00 00 00
 (013.171262)  can0  RX - -  0757F803   [8]  01 10 10 00 01 01 00 00
 (013.430165)  can0  RX - -  0757F80B   [8]  01 10 10 00 02 02 00 00
 (013.566313)  can0  RX - -  0757F803   [8]  01 10 10 00 01 01 00 00
 (013.632770)  can0  TX - -  06080F81   [8]  10 00 00 43 00 00 00 00
 (013.634195)  can0  RX - -  060F8009   [8]  42 F0 00 43 00 01 00 01
 (013.635365)  can0  TX - -  06080F81   [8]  10 00 00 4B 00 00 00 00
 (013.637030)  can0  RX - -  060F8009   [8]  42 F0 00 4B 00 00 00 03
 (013.637839)  can0  TX - -  06080F81   [8]  10 00 00 12 00 00 00 00
 (013.639523)  can0  RX - -  060F8009   [8]  41 F0 00 12 41 F0 00 00
 (013.640331)  can0  TX - -  06080F81   [8]  10 00 00 40 00 00 00 00
 (013.642039)  can0  RX - -  060F8009   [8]  42 F0 00 40 00 40 00 00
 (013.642860)  can0  TX - -  06080F81   [8]  10 00 00 48 00 00 00 00
 (013.644578)  can0  RX - -  060F8009   [8]  42 F0 00 48 00 00 00 00
 (013.645407)  can0  TX - -  06080F81   [8]  10 00 00 01 00 00 00 00
 (013.647105)  can0  RX - -  060F8009   [8]  41 F0 00 01 40 90 38 00
 (013.647887)  can0  TX - -  06080F81   [8]  10 00 00 02 00 00 00 00
 (013.649557)  can0  RX - -  060F8009   [8]  41 F0 00 02 00 00 00 00
 (013.650383)  can0  TX - -  06080F81   [8]  10 00 00 03 00 00 00 00
 (013.652065)  can0  RX - -  060F8009   [8]  41 F0 00 03 3E 88 80 00
 (013.652873)  can0  TX - -  06080F81   [8]  10 00 00 04 00 00 00 00
 (013.654514)  can0  RX - -  060F8009   [8]  41 F0 00 04 42 45 00 00
 (013.825173)  can0  RX - -  0757F80B   [8]  01 10 10 00 02 02 00 00
 (013.961431)  can0  RX - -  075D0003   [8]  A0 01 10 08 01 80 00 81
 (014.220277)  can0  RX - -  0757F80B   [8]  01 10 10 00 02 02 00 00
 (014.314293)  can0  TX - -  06080F81   [8]  10 00 00 43 00 00 00 00
 (014.315758)  can0  RX - -  060F8009   [8]  42 F0 00 43 00 01 00 01
 (014.316752)  can0  TX - -  06080F81   [8]  10 00 00 4B 00 00 00 00
 (014.318199)  can0  RX - -  060F8009   [8]  42 F0 00 4B 00 00 00 03
 (014.319190)  can0  TX - -  06080F81   [8]  10 00 00 12 00 00 00 00
 (014.320693)  can0  RX - -  060F8009   [8]  41 F0 00 12 41 F0 00 00
 (014.321688)  can0  TX - -  06080F81   [8]  10 00 00 40 00 00 00 00
 (014.323185)  can0  RX - -  060F8009   [8]  42 F0 00 40 00 40 00 00
 (014.324177)  can0  TX - -  06080F81   [8]  10 00 00 48 00 00 00 00
 (014.325643)  can0  RX - -  060F8009   [8]  42 F0 00 48 00 00 00 00
 (014.326651)  can0  TX - -  06080F81   [8]  10 00 00 01 00 00 00 00
 (014.328116)  can0  RX - -  060F8009   [8]  41 F0 00 01 40 90 38 00
 (014.329116)  can0  TX - -  06080F81   [8]  10 00 00 02 00 00 00 00
 (014.330610)  can0  RX - -  060F8009   [8]  41 F0 00 02 00 00 00 00
 (014.331626)  can0  TX - -  06080F81   [8]  10 00 00 03 00 00 00 00
 (014.333118)  can0  RX - -  060F8009   [8]  41 F0 00 03 3E 88 80 00
 (014.334145)  can0  TX - -  06080F81   [8]  10 00 00 04 00 00 00 00
 (014.335582)  can0  RX - -  060F8009   [8]  41 F0 00 04 42 45 00 00
 (014.356236)  can0  RX - -  0757F803   [8]  01 10 10 00 01 01 00 00
 (014.494517)  can0  TX - -  06080F81   [8]  10 00 00 43 00 00 00 00
 (014.495984)  can0  RX - -  060F8009   [8]  42 F0 00 43 00 01 00 01
 (014.496977)  can0  TX - -  06080F81   [8]  10 00 00 4B 00 00 00 00
 (014.498431)  can0  RX - -  060F8009   [8]  42 F0 00 4B 00 00 00 03
 (014.499421)  can0  TX - -  06080F81   [8]  10 00 00 12 00 00 00 00
 (014.500917)  can0  RX - -  060F8009   [8]  41 F0 00 12 41 F0 00 00
 (014.501940)  can0  TX - -  06080F81   [8]  10 00 00 40 00 00 00 00
 (014.503417)  can0  RX - -  060F8009   [8]  42 F0 00 40 00 40 00 00
 (014.504421)  can0  TX - -  06080F81   [8]  10 00 00 48 00 00 00 00
 (014.505920)  can0  RX - -  060F8009   [8]  42 F0 00 48 00 00 00 00
 (014.506913)  can0  TX - -  06080F81   [8]  10 00 00 01 00 00 00 00
 (014.508392)  can0  RX - -  060F8009   [8]  41 F0 00 01 40 90 40 00
 (014.509391)  can0  TX - -  06080F81   [8]  10 00 00 02 00 00 00 00
 (014.510908)  can0  RX - -  060F8009   [8]  41 F0 00 02 00 00 00 00
 (014.511920)  can0  TX - -  06080F81   [8]  10 00 00 03 00 00 00 00
 (014.513421)  can0  RX - -  060F8009   [8]  41 F0 00 03 3E 88 80 00
 (014.514424)  can0  TX - -  06080F81   [8]  10 00 00 04 00 00 00 00
 (014.515911)  can0  RX - -  060F8009   [8]  41 F0 00 04 42 45 00 00
 (014.615323)  can0  RX - -  075D000B   [8]  A0 01 10 08 01 80 04 81
 (014.675013)  can0  TX - -  06080F81   [8]  10 00 00 43 00 00 00 00
 (014.676465)  can0  RX - -  060F8009   [8]  42 F0 00 43 00 01 00 01
 (014.677444)  can0  TX - -  06080F81   [8]  10 00 00 4B 00 00 00 00
 (014.678926)  can0  RX - -  060F8009   [8]  42 F0 00 4B 00 00 00 03
 (014.679916)  can0  TX - -  06080F81   [8]  10 00 00 12 00 00 00 00
 (014.681625)  can0  RX - -  060F8009   [8]  41 F0 00 12 41 F0 00 00
 (014.682606)  can0  TX - -  06080F81   [8]  10 00 00 40 00 00 00 00
 (014.684155)  can0  RX - -  060F8009   [8]  42 F0 00 40 00 40 00 00
 (014.685150)  can0  TX - -  06080F81   [8]  10 00 00 48 00 00 00 00
 (014.686620)  can0  RX - -  060F8009   [8]  42 F0 00 48 00 00 00 00
 (014.687632)  can0  TX - -  06080F81   [8]  10 00 00 01 00 00 00 00
 (014.689132)  can0  RX - -  060F8009   [8]  41 F0 00 01 40 90 40 00
 (014.690127)  can0  TX - -  06080F81   [8]  10 00 00 02 00 00 00 00
 (014.691600)  can0  RX - -  060F8009   [8]  41 F0 00 02 00 00 00 00
 (014.692590)  can0  TX - -  06080F81   [8]  10 00 00 03 00 00 00 00
 (014.694078)  can0  RX - -  060F8009   [8]  41 F0 00 03 3E 88 80 00
 (014.695090)  can0  TX - -  06080F81   [8]  10 00 00 04 00 00 00 00
 (014.696579)  can0  RX - -  060F8009   [8]  41 F0 00 04 42 45 00 00
 (014.751272)  can0  RX - -  0757F803   [8]  01 10 10 00 01 01 00 00
 (014.835270)  can0  TX - -  06080F81   [8]  10 00 00 43 00 00 00 00
 (014.836778)  can0  RX - -  060F8009   [8]  42 F0 00 43 00 01 00 01
 (014.837746)  can0  TX - -  06080F81   [8]  10 00 00 4B 00 00 00 00
 (014.839198)  can0  RX - -  060F8009   [8]  42 F0 00 4B 00 00 00 03
 (014.840188)  can0  TX - -  06080F81   [8]  10 00 00 12 00 00 00 00
 (014.841697)  can0  RX - -  060F8009   [8]  41 F0 00 12 41 F0 00 00
 (014.842708)  can0  TX - -  06080F81   [8]  10 00 00 40 00 00 00 00
 (014.844204)  can0  RX - -  060F8009   [8]  42 F0 00 40 00 40 00 00
 (014.845211)  can0  TX - -  06080F81   [8]  10 00 00 48 00 00 00 00
 (014.846684)  can0  RX - -  060F8009   [8]  42 F0 00 48 00 00 00 00
 (014.847689)  can0  TX - -  06080F81   [8]  10 00 00 01 00 00 00 00
 (014.849189)  can0  RX - -  060F8009   [8]  41 F0 00 01 40 90 40 00
 (014.850185)  can0  TX - -  06080F81   [8]  10 00 00 02 00 00 00 00
 (014.851682)  can0  RX - -  060F8009   [8]  41 F0 00 02 00 00 00 00
 (014.852762)  can0  TX - -  06080F81   [8]  10 00 00 03 00 00 00 00
 (014.854196)  can0  RX - -  060F8009   [8]  41 F0 00 03 3E 88 80 00
 (014.855198)  can0  TX - -  06080F81   [8]  10 00 00 04 00 00 00 00
 (014.856643)  can0  RX - -  060F8009   [8]  41 F0 00 04 42 45 00 00
 (015.010199)  can0  RX - -  0757F80B   [8]  01 10 10 00 02 02 00 00
 (015.015249)  can0  TX - -  06080F81   [8]  10 00 00 43 00 00 00 00
 (015.016728)  can0  RX - -  060F8009   [8]  42 F0 00 43 00 01 00 01
 (015.017716)  can0  TX - -  06080F81   [8]  10 00 00 4B 00 00 00 00
 (015.019245)  can0  RX - -  060F8009   [8]  42 F0 00 4B 00 00 00 03
 (015.020179)  can0  TX - -  06080F81   [8]  10 00 00 12 00 00 00 00
 (015.021701)  can0  RX - -  060F8009   [8]  41 F0 00 12 41 F0 00 00
 (015.022706)  can0  TX - -  06080F81   [8]  10 00 00 40 00 00 00 00
 (015.024208)  can0  RX - -  060F8009   [8]  42 F0 00 40 00 40 00 00
 (015.025216)  can0  TX - -  06080F81   [8]  10 00 00 48 00 00 00 00
 (015.026727)  can0  RX - -  060F8009   [8]  42 F0 00 48 00 00 00 00
 (015.027734)  can0  TX - -  06080F81   [8]  10 00 00 01 00 00 00 00
 (015.029217)  can0  RX - -  060F8009   [8]  41 F0 00 01 40 90 40 00
 (015.030214)  can0  TX - -  06080F81   [8]  10 00 00 02 00 00 00 00
 (015.031719)  can0  RX - -  060F8009   [8]  41 F0 00 02 00 00 00 00
 (015.032745)  can0  TX - -  06080F81   [8]  10 00 00 03 00 00 00 00
 (015.034211)  can0  RX - -  060F8009   [8]  41 F0 00 03 3E 88 80 00
 (015.035220)  can0  TX - -  06080F81   [8]  10 00 00 04 00 00 00 00
 (015.036678)  can0  RX - -  060F8009   [8]  41 F0 00 04 42 45 00 00
 (015.101661)  can0  RX - -  0757F803   [8]  02 F0 00 02 01 01 00 00
 (015.146261)  can0  RX - -  0757F803   [8]  01 10 10 00 01 01 00 00
 (015.195190)  can0  TX - -  06080F81   [8]  10 00 00 43 00 00 00 00
 (015.196829)  can0  RX - -  060F8009   [8]  42 F0 00 43 00 01 00 01
 (015.197783)  can0  TX - -  06080F81   [8]  10 00 00 4B 00 00 00 00
 (015.199269)  can0  RX - -  060F8009   [8]  42 F0 00 4B 00 00 00 03
 (015.200253)  can0  TX - -  06080F81   [8]  10 00 00 12 00 00 00 00
 (015.201749)  can0  RX - -  060F8009   [8]  41 F0 00 12 41 F0 00 00
 (015.202749)  can0  TX - -  06080F81   [8]  10 00 00 40 00 00 00 00
 (015.204259)  can0  RX - -  060F8009   [8]  42 F0 00 40 00 40 00 00
 (015.205283)  can0  TX - -  06080F81   [8]  10 00 00 48 00 00 00 00
 (015.206729)  can0  RX - -  060F8009   [8]  42 F0 00 48 00 00 00 00
 (015.207735)  can0  TX - -  06080F81   [8]  10 00 00 01 00 00 00 00
 (015.209192)  can0  RX - -  060F8009   [8]  41 F0 00 01 40 90 40 00
 (015.210191)  can0  TX - -  06080F81   [8]  10 00 00 02 00 00 00 00
 (015.211687)  can0  RX - -  060F8009   [8]  41 F0 00 02 00 00 00 00
 (015.212701)  can0  TX - -  06080F81   [8]  10 00 00 03 00 00 00 00
 (015.214205)  can0  RX - -  060F8009   [8]  41 F0 00 03 3E 88 80 00
 (015.215212)  can0  TX - -  06080F81   [8]  10 00 00 04 00 00 00 00
 (015.216707)  can0  RX - -  060F8009   [8]  41 F0 00 04 42 45 00 00
 (015.354881)  can0  TX - -  06080F81   [8]  10 00 00 43 00 00 00 00
 (015.356355)  can0  RX - -  060F8009   [8]  42 F0 00 43 00 01 00 01
 (015.357346)  can0  TX - -  06080F81   [8]  10 00 00 4B 00 00 00 00
 (015.358794)  can0  RX - -  060F8009   [8]  42 F0 00 4B 00 00 00 03
 (015.359787)  can0  TX - -  06080F81   [8]  10 00 00 12 00 00 00 00
 (015.361469)  can0  RX - -  060F8009   [8]  41 F0 00 12 41 F0 00 00
 (015.362468)  can0  TX - -  06080F81   [8]  10 00 00 40 00 00 00 00
 (015.363980)  can0  RX - -  060F8009   [8]  42 F0 00 40 00 40 00 00
 (015.365006)  can0  TX - -  06080F81   [8]  10 00 00 48 00 00 00 00
 (015.366476)  can0  RX - -  060F8009   [8]  42 F0 00 48 00 00 00 00
 (015.367493)  can0  TX - -  06080F81   [8]  10 00 00 01 00 00 00 00
 (015.368971)  can0  RX - -  060F8009   [8]  41 F0 00 01 40 90 40 00
 (015.369979)  can0  TX - -  06080F81   [8]  10 00 00 02 00 00 00 00
 (015.371579)  can0  RX - -  060F8009   [8]  41 F0 00 02 00 00 00 00
 (015.372584)  can0  TX - -  06080F81   [8]  10 00 00 03 00 00 00 00
 (015.374080)  can0  RX - -  060F8009   [8]  41 F0 00 03 3E 88 80 00
 (015.375087)  can0  TX - -  06080F81   [8]  10 00 00 04 00 00 00 00
 (015.376541)  can0  RX - -  060F8009   [8]  41 F0 00 04 42 45 00 00
 (015.405196)  can0  RX - -  0757F80B   [8]  01 10 10 00 02 02 00 00
 (015.514734)  can0  TX - -  06080F81   [8]  10 00 00 43 00 00 00 00
 (015.516313)  can0  RX - -  060F8009   [8]  42 F0 00 43 00 01 00 01
 (015.517310)  can0  TX - -  06080F81   [8]  10 00 00 4B 00 00 00 00
 (015.518770)  can0  RX - -  060F8009   [8]  42 F0 00 4B 00 00 00 03
 (015.519763)  can0  TX - -  06080F81   [8]  10 00 00 12 00 00 00 00
 (015.521512)  can0  RX - -  060F8009   [8]  41 F0 00 12 41 F0 00 00
 (015.522482)  can0  TX - -  06080F81   [8]  10 00 00 40 00 00 00 00
 (015.523997)  can0  RX - -  060F8009   [8]  42 F0 00 40 00 40 00 00
 (015.525005)  can0  TX - -  06080F81   [8]  10 00 00 48 00 00 00 00
 (015.526491)  can0  RX - -  060F8009   [8]  42 F0 00 48 00 00 00 00
 (015.527497)  can0  TX - -  06080F81   [8]  10 00 00 01 00 00 00 00
 (015.528985)  can0  RX - -  060F8009   [8]  41 F0 00 01 40 90 40 00
 (015.529980)  can0  TX - -  06080F81   [8]  10 00 00 02 00 00 00 00
 (015.531514)  can0  RX - -  060F8009   [8]  41 F0 00 02 00 00 00 00
 (015.532538)  can0  TX - -  06080F81   [8]  10 00 00 03 00 00 00 00
 (015.534003)  can0  RX - -  060F8009   [8]  41 F0 00 03 3E 88 80 00
 (015.535012)  can0  TX - -  06080F81   [8]  10 00 00 04 00 00 00 00
 (015.536494)  can0  RX - -  060F8009   [8]  41 F0 00 04 42 45 00 00
 (015.541356)  can0  RX - -  0757F803   [8]  01 10 10 00 01 01 00 00
 (015.674414)  can0  TX - -  06080F81   [8]  10 00 00 43 00 00 00 00
 (015.675864)  can0  RX - -  060F8009   [8]  42 F0 00 43 00 01 00 01
 (015.676885)  can0  TX - -  06080F81   [8]  10 00 00 4B 00 00 00 00
 (015.678331)  can0  RX - -  060F8009   [8]  42 F0 00 4B 00 00 00 03
 (015.679327)  can0  TX - -  06080F81   [8]  10 00 00 12 00 00 00 00
 (015.680800)  can0  RX - -  060F8009   [8]  41 F0 00 12 41 F0 00 00
 (015.681798)  can0  TX - -  06080F81   [8]  10 00 00 40 00 00 00 00
 (015.683371)  can0  RX - -  060F8009   [8]  42 F0 00 40 00 40 00 00
 (015.684349)  can0  TX - -  06080F81   [8]  10 00 00 48 00 00 00 00
 (015.685844)  can0  RX - -  060F8009   [8]  42 F0 00 48 00 00 00 00
 (015.686850)  can0  TX - -  06080F81   [8]  10 00 00 01 00 00 00 00
 (015.688356)  can0  RX - -  060F8009   [8]  41 F0 00 01 40 90 40 00
 (015.689354)  can0  TX - -  06080F81   [8]  10 00 00 02 00 00 00 00
 (015.690886)  can0  RX - -  060F8009   [8]  41 F0 00 02 00 00 00 00
 (015.691893)  can0  TX - -  06080F81   [8]  10 00 00 03 00 00 00 00
 (015.693394)  can0  RX - -  060F8009   [8]  41 F0 00 03 3E 88 80 00
 (015.694368)  can0  TX - -  06080F81   [8]  10 00 00 04 00 00 00 00
 (015.695835)  can0  RX - -  060F8009   [8]  41 F0 00 04 42 45 00 00
 (015.755609)  can0  RX - -  0757F80B   [8]  02 F0 00 02 02 02 00 00
 (015.800217)  can0  RX - -  0757F80B   [8]  01 10 10 00 02 02 00 00
 (015.855697)  can0  TX - -  06080F81   [8]  10 00 00 43 00 00 00 00
 (015.857149)  can0  RX - -  060F8009   [8]  42 F0 00 43 00 01 00 01
 (015.858139)  can0  TX - -  06080F81   [8]  10 00 00 4B 00 00 00 00
 (015.859580)  can0  RX - -  060F8009   [8]  42 F0 00 4B 00 00 00 03
 (015.860576)  can0  TX - -  06080F81   [8]  10 00 00 12 00 00 00 00
 (015.862068)  can0  RX - -  060F8009   [8]  41 F0 00 12 41 F0 00 00
 (015.863072)  can0  TX - -  06080F81   [8]  10 00 00 40 00 00 00 00
 (015.864571)  can0  RX - -  060F8009   [8]  42 F0 00 40 00 40 00 00
 (015.865573)  can0  TX - -  06080F81   [8]  10 00 00 48 00 00 00 00
 (015.867048)  can0  RX - -  060F8009   [8]  42 F0 00 48 00 00 00 00
 (015.868058)  can0  TX - -  06080F81   [8]  10 00 00 01 00 00 00 00
 (015.869521)  can0  RX - -  060F8009   [8]  41 F0 00 01 40 90 58 00
 (015.870544)  can0  TX - -  06080F81   [8]  10 00 00 02 00 00 00 00
 (015.872017)  can0  RX - -  060F8009   [8]  41 F0 00 02 00 00 00 00
 (015.873025)  can0  TX - -  06080F81   [8]  10 00 00 03 00 00 00 00
 (015.874554)  can0  RX - -  060F8009   [8]  41 F0 00 03 3E 88 80 00
 (015.875544)  can0  TX - -  06080F81   [8]  10 00 00 04 00 00 00 00
 (015.876992)  can0  RX - -  060F8009   [8]  41 F0 00 04 42 45 00 00
 (015.936294)  can0  RX - -  0757F803   [8]  01 10 10 00 01 01 00 00
 (016.195292)  can0  RX - -  0757F80B   [8]  01 10 10 00 02 02 00 00
 (016.297236)  can0  TX - -  06080F81   [8]  10 00 00 43 00 00 00 00
 (016.298712)  can0  RX - -  060F8009   [8]  42 F0 00 43 00 01 00 01
 (016.299700)  can0  TX - -  06080F81   [8]  10 00 00 4B 00 00 00 00
 (016.301391)  can0  RX - -  060F8009   [8]  42 F0 00 4B 00 00 00 03
 (016.302390)  can0  TX - -  06080F81   [8]  10 00 00 12 00 00 00 00
 (016.303909)  can0  RX - -  060F8009   [8]  41 F0 00 12 41 F0 00 00
 (016.304887)  can0  TX - -  06080F81   [8]  10 00 00 40 00 00 00 00
 (016.306440)  can0  RX - -  060F8009   [8]  42 F0 00 40 00 40 00 00
 (016.307445)  can0  TX - -  06080F81   [8]  10 00 00 48 00 00 00 00
 (016.308936)  can0  RX - -  060F8009   [8]  42 F0 00 48 00 00 00 00
 (016.309942)  can0  TX - -  06080F81   [8]  10 00 00 01 00 00 00 00
 (016.311422)  can0  RX - -  060F8009   [8]  41 F0 00 01 40 90 68 00
 (016.312426)  can0  TX - -  06080F81   [8]  10 00 00 02 00 00 00 00
 (016.313887)  can0  RX - -  060F8009   [8]  41 F0 00 02 00 00 00 00
 (016.314907)  can0  TX - -  06080F81   [8]  10 00 00 03 00 00 00 00
 (016.316381)  can0  RX - -  060F8009   [8]  41 F0 00 03 3E 88 80 00
 (016.317386)  can0  TX - -  06080F81   [8]  10 00 00 04 00 00 00 00
 (016.318857)  can0  RX - -  060F8009   [8]  41 F0 00 04 42 45 00 00
 (016.331404)  can0  RX - -  075D0003   [8]  10 F0 03 C0 02 00 00 00
 (016.457126)  can0  TX - -  06080F81   [8]  03 00 00 23 44 00 C0 00
 (016.458619)  can0  RX - -  060F8009   [8]  41 F0 00 23 44 00 C0 00
 (016.462188)  can0  TX - -  06080F81   [8]  03 00 00 22 3F 80 00 00
 (016.463676)  can0  RX - -  060F8009   [8]  41 F0 00 22 3F 80 00 00
 (016.477533)  can0  TX - -  06080F81   [8]  03 00 00 30 00 00 00 00
 (016.479022)  can0  RX - -  060F8009   [8]  42 F0 00 30 00 00 00 00
 (016.487647)  can0  TX - -  06080F81   [8]  03 00 00 21 43 FA 00 00
 (016.489094)  can0  RX - -  060F8009   [8]  41 F0 00 21 43 FA 00 00
 (016.497806)  can0  TX - -  06080F81   [8]  03 00 00 1B 00 00 C8 00
 (016.499253)  can0  RX - -  060F8009   [8]  42 F0 00 1B 00 00 C8 00
 (016.500251)  can0  TX - -  06080F81   [8]  10 00 00 43 00 00 00 00
 (016.501716)  can0  RX - -  060F8009   [8]  42 F0 00 43 00 01 00 01
 (016.502721)  can0  TX - -  06080F81   [8]  10 00 00 4B 00 00 00 00
 (016.504193)  can0  RX - -  060F8009   [8]  42 F0 00 4B 00 00 00 03
 (016.505173)  can0  TX - -  06080F81   [8]  10 00 00 12 00 00 00 00
 (016.506643)  can0  RX - -  060F8009   [8]  41 F0 00 12 41 F0 00 00
 (016.507638)  can0  TX - -  06080F81   [8]  10 00 00 40 00 00 00 00
 (016.509298)  can0  RX - -  060F8009   [8]  42 F0 00 40 00 40 00 00
 (016.510303)  can0  TX - -  06080F81   [8]  10 00 00 48 00 00 00 00
 (016.511793)  can0  RX - -  060F8009   [8]  42 F0 00 48 00 00 00 00
 (016.512801)  can0  TX - -  06080F81   [8]  10 00 00 01 00 00 00 00
 (016.514263)  can0  RX - -  060F8009   [8]  41 F0 00 01 40 90 68 00
 (016.515273)  can0  TX - -  06080F81   [8]  10 00 00 02 00 00 00 00
 (016.516739)  can0  RX - -  060F8009   [8]  41 F0 00 02 00 00 00 00
 (016.517753)  can0  TX - -  06080F81   [8]  10 00 00 03 00 00 00 00
 (016.519206)  can0  RX - -  060F8009   [8]  41 F0 00 03 3F D5 40 00
 (016.520212)  can0  TX - -  06080F81   [8]  10 00 00 04 00 00 00 00
 (016.521647)  can0  RX - -  060F8009   [8]  41 F0 00 04 42 45 00 00
 (016.590227)  can0  RX - -  0757F80B   [8]  01 10 10 00 02 02 00 00
 (016.678548)  can0  TX - -  06080F81   [8]  03 00 00 30 00 00 00 00
 (016.680005)  can0  RX - -  060F8009   [8]  42 F0 00 30 00 00 00 00
 (016.688713)  can0  TX - -  06080F81   [8]  03 00 00 21 43 FA 00 00
 (016.690176)  can0  RX - -  060F8009   [8]  41 F0 00 21 43 FA 00 00
 (016.693921)  can0  TX - -  06080F81   [8]  03 00 00 1B 00 00 C8 00
 (016.695358)  can0  RX - -  060F8009   [8]  42 F0 00 1B 00 00 C8 00
 (016.696372)  can0  TX - -  06080F81   [8]  10 00 00 43 00 00 00 00
 (016.697876)  can0  RX - -  060F8009   [8]  42 F0 00 43 00 01 00 01
 (016.698843)  can0  TX - -  06080F81   [8]  10 00 00 4B 00 00 00 00
 (016.700273)  can0  RX - -  060F8009   [8]  42 F0 00 4B 00 00 00 03
 (016.701282)  can0  TX - -  06080F81   [8]  10 00 00 12 00 00 00 00
 (016.702755)  can0  RX - -  060F8009   [8]  41 F0 00 12 41 F0 00 00
 (016.703739)  can0  TX - -  06080F81   [8]  10 00 00 40 00 00 00 00
 (016.705237)  can0  RX - -  060F8009   [8]  42 F0 00 40 00 40 00 00
 (016.706229)  can0  TX - -  06080F81   [8]  10 00 00 48 00 00 00 00
 (016.707703)  can0  RX - -  060F8009   [8]  42 F0 00 48 00 00 00 00
 (016.708702)  can0  TX - -  06080F81   [8]  10 00 00 01 00 00 00 00
 (016.710169)  can0  RX - -  060F8009   [8]  41 F0 00 01 40 90 68 00
 (016.711154)  can0  TX - -  06080F81   [8]  10 00 00 02 00 00 00 00
 (016.712636)  can0  RX - -  060F8009   [8]  41 F0 00 02 00 00 00 00
 (016.713635)  can0  TX - -  06080F81   [8]  10 00 00 03 00 00 00 00
 (016.715080)  can0  RX - -  060F8009   [8]  41 F0 00 03 3F D5 40 00
 (016.716076)  can0  TX - -  06080F81   [8]  10 00 00 04 00 00 00 00
 (016.717563)  can0  RX - -  060F8009   [8]  41 F0 00 04 42 45 00 00
 (016.726264)  can0  RX - -  0757F803   [8]  01 10 10 00 01 01 00 00
 (016.854558)  can0  TX - -  06080F81   [8]  03 00 00 30 00 00 00 00
 (016.855998)  can0  RX - -  060F8009   [8]  42 F0 00 30 00 00 00 00
 (016.864750)  can0  TX - -  06080F81   [8]  03 00 00 21 43 FA 00 00
 (016.866311)  can0  RX - -  060F8009   [8]  41 F0 00 21 43 FA 00 00
 (016.869764)  can0  TX - -  06080F81   [8]  03 00 00 1B 00 00 C8 00
 (016.871365)  can0  RX - -  060F8009   [8]  42 F0 00 1B 00 00 C8 00
 (016.872351)  can0  TX - -  06080F81   [8]  10 00 00 43 00 00 00 00
 (016.873798)  can0  RX - -  060F8009   [8]  42 F0 00 43 00 01 00 01
 (016.874790)  can0  TX - -  06080F81   [8]  10 00 00 4B 00 00 00 00
 (016.876434)  can0  RX - -  060F8009   [8]  42 F0 00 4B 00 00 00 03
 (016.877420)  can0  TX - -  06080F81   [8]  10 00 00 12 00 00 00 00
 (016.878917)  can0  RX - -  060F8009   [8]  41 F0 00 12 41 F0 00 00
 (016.879915)  can0  TX - -  06080F81   [8]  10 00 00 40 00 00 00 00
 (016.881602)  can0  RX - -  060F8009   [8]  42 F0 00 40 00 40 00 00
 (016.882608)  can0  TX - -  06080F81   [8]  10 00 00 48 00 00 00 00
 (016.884097)  can0  RX - -  060F8009   [8]  42 F0 00 48 00 00 00 00
 (016.885105)  can0  TX - -  06080F81   [8]  10 00 00 01 00 00 00 00
 (016.886569)  can0  RX - -  060F8009   [8]  41 F0 00 01 40 90 68 00
 (016.887570)  can0  TX - -  06080F81   [8]  10 00 00 02 00 00 00 00
 (016.889018)  can0  RX - -  060F8009   [8]  41 F0 00 02 00 00 00 00
 (016.890033)  can0  TX - -  06080F81   [8]  10 00 00 03 00 00 00 00
 (016.891506)  can0  RX - -  060F8009   [8]  41 F0 00 03 3F D5 40 00
 (016.892516)  can0  TX - -  06080F81   [8]  10 00 00 04 00 00 00 00
 (016.893945)  can0  RX - -  060F8009   [8]  41 F0 00 04 42 45 00 00
 (016.985357)  can0  RX - -  075D000B   [8]  10 F0 03 C0 02 00 00 00
 (017.029803)  can0  TX - -  06080F81   [8]  03 00 00 30 00 00 00 00
 (017.031465)  can0  RX - -  060F8009   [8]  42 F0 00 30 00 00 00 00
 (017.039929)  can0  TX - -  06080F81   [8]  03 00 00 21 43 FA 00 00
 (017.041501)  can0  RX - -  060F8009   [8]  41 F0 00 21 43 FA 00 00
 (017.045018)  can0  TX - -  06080F81   [8]  03 00 00 1B 00 00 C8 00
 (017.046481)  can0  RX - -  060F8009   [8]  42 F0 00 1B 00 00 C8 00
 (017.047481)  can0  TX - -  06080F81   [8]  10 00 00 43 00 00 00 00
 (017.048936)  can0  RX - -  060F8009   [8]  42 F0 00 43 00 01 00 01
 (017.049925)  can0  TX - -  06080F81   [8]  10 00 00 4B 00 00 00 00
 (017.051369)  can0  RX - -  060F8009   [8]  42 F0 00 4B 00 00 00 03
 (017.052359)  can0  TX - -  06080F81   [8]  10 00 00 12 00 00 00 00
 (017.053847)  can0  RX - -  060F8009   [8]  41 F0 00 12 41 F0 00 00
 (017.054846)  can0  TX - -  06080F81   [8]  10 00 00 40 00 00 00 00
 (017.056374)  can0  RX - -  060F8009   [8]  42 F0 00 40 00 40 00 00
 (017.057382)  can0  TX - -  06080F81   [8]  10 00 00 48 00 00 00 00
 (017.058823)  can0  RX - -  060F8009   [8]  42 F0 00 48 00 00 00 00
 (017.059831)  can0  TX - -  06080F81   [8]  10 00 00 01 00 00 00 00
 (017.061407)  can0  RX - -  060F8009   [8]  41 F0 00 01 40 90 88 00
 (017.062409)  can0  TX - -  06080F81   [8]  10 00 00 02 00 00 00 00
 (017.063873)  can0  RX - -  060F8009   [8]  41 F0 00 02 00 00 00 00
 (017.064888)  can0  TX - -  06080F81   [8]  10 00 00 03 00 00 00 00
 (017.066321)  can0  RX - -  060F8009   [8]  41 F0 00 03 3F D5 40 00
 (017.067328)  can0  TX - -  06080F81   [8]  10 00 00 04 00 00 00 00
 (017.068775)  can0  RX - -  060F8009   [8]  41 F0 00 04 42 45 00 00
 (017.121331)  can0  RX - -  075D0003   [8]  A0 01 10 08 01 80 00 81
 (017.204798)  can0  TX - -  06080F81   [8]  03 00 00 30 00 00 00 00
 (017.206437)  can0  RX - -  060F8009   [8]  42 F0 00 30 00 00 00 00
 (017.214883)  can0  TX - -  06080F81   [8]  03 00 00 21 43 FA 00 00
 (017.216350)  can0  RX - -  060F8009   [8]  41 F0 00 21 43 FA 00 00
 (017.220005)  can0  TX - -  06080F81   [8]  03 00 00 1B 00 00 C8 00
 (017.221454)  can0  RX - -  060F8009   [8]  42 F0 00 1B 00 00 C8 00
 (017.222451)  can0  TX - -  06080F81   [8]  10 00 00 43 00 00 00 00
 (017.223901)  can0  RX - -  060F8009   [8]  42 F0 00 43 00 01 00 01
 (017.224904)  can0  TX - -  06080F81   [8]  10 00 00 4B 00 00 00 00
 (017.226350)  can0  RX - -  060F8009   [8]  42 F0 00 4B 00 00 00 03
 (017.227346)  can0  TX - -  06080F81   [8]  10 00 00 12 00 00 00 00
 (017.228847)  can0  RX - -  060F8009   [8]  41 F0 00 12 41 F0 00 00
 (017.229908)  can0  TX - -  06080F81   [8]  10 00 00 40 00 00 00 00
 (017.231504)  can0  RX - -  060F8009   [8]  42 F0 00 40 00 40 00 00
 (017.232497)  can0  TX - -  06080F81   [8]  10 00 00 48 00 00 00 00
 (017.233960)  can0  RX - -  060F8009   [8]  42 F0 00 48 00 00 00 00
 (017.234962)  can0  TX - -  06080F81   [8]  10 00 00 01 00 00 00 00
 (017.236422)  can0  RX - -  060F8009   [8]  41 F0 00 01 40 96 18 00
 (017.237455)  can0  TX - -  06080F81   [8]  10 00 00 02 00 00 00 00
 (017.238901)  can0  RX - -  060F8009   [8]  41 F0 00 02 00 00 00 00
 (017.239911)  can0  TX - -  06080F81   [8]  10 00 00 03 00 00 00 00
 (017.241426)  can0  RX - -  060F8009   [8]  41 F0 00 03 3F D5 40 00
 (017.242432)  can0  TX - -  06080F81   [8]  10 00 00 04 00 00 00 00
 (017.243863)  can0  RX - -  060F8009   [8]  41 F0 00 04 42 45 00 00
 (017.380243)  can0  RX - -  0757F80B   [8]  01 10 10 00 02 02 00 00
 (017.400248)  can0  TX - -  06080F81   [8]  03 00 00 30 00 00 00 00
 (017.401726)  can0  RX - -  060F8009   [8]  42 F0 00 30 00 00 00 00
 (017.410377)  can0  TX - -  06080F81   [8]  03 00 00 21 43 FA 00 00
 (017.411826)  can0  RX - -  060F8009   [8]  41 F0 00 21 43 FA 00 00
 (017.415484)  can0  TX - -  06080F81   [8]  03 00 00 1B 00 00 C8 00
 (017.416965)  can0  RX - -  060F8009   [8]  42 F0 00 1B 00 00 C8 00
 (017.417974)  can0  TX - -  06080F81   [8]  10 00 00 43 00 00 00 00
 (017.419412)  can0  RX - -  060F8009   [8]  42 F0 00 43 00 01 00 01
 (017.420409)  can0  TX - -  06080F81   [8]  10 00 00 4B 00 00 00 00
 (017.421827)  can0  RX - -  060F8009   [8]  42 F0 00 4B 00 00 00 03
 (017.422821)  can0  TX - -  06080F81   [8]  10 00 00 12 00 00 00 00
 (017.424275)  can0  RX - -  060F8009   [8]  41 F0 00 12 41 F0 00 00
 (017.425277)  can0  TX - -  06080F81   [8]  10 00 00 40 00 00 00 00
 (017.426745)  can0  RX - -  060F8009   [8]  42 F0 00 40 00 40 00 00
 (017.427749)  can0  TX - -  06080F81   [8]  10 00 00 48 00 00 00 00
 (017.429207)  can0  RX - -  060F8009   [8]  42 F0 00 48 00 00 00 00
 (017.430213)  can0  TX - -  06080F81   [8]  10 00 00 01 00 00 00 00
 (017.431662)  can0  RX - -  060F8009   [8]  41 F0 00 01 40 E8 80 00
 (017.432666)  can0  TX - -  06080F81   [8]  10 00 00 02 00 00 00 00
 (017.434136)  can0  RX - -  060F8009   [8]  41 F0 00 02 00 00 00 00
 (017.435152)  can0  TX - -  06080F81   [8]  10 00 00 03 00 00 00 00
 (017.436628)  can0  RX - -  060F8009   [8]  41 F0 00 03 3F D5 40 00
 (017.437624)  can0  TX - -  06080F81   [8]  10 00 00 04 00 00 00 00
 (017.439048)  can0  RX - -  060F8009   [8]  41 F0 00 04 42 45 00 00
 (017.516312)  can0  RX - -  0757F803   [8]  01 10 10 00 01 01 00 00
 (017.595541)  can0  TX - -  06080F81   [8]  03 00 00 30 00 00 00 00
 (017.597004)  can0  RX - -  060F8009   [8]  42 F0 00 30 00 00 00 00
 (017.605673)  can0  TX - -  06080F81   [8]  03 00 00 21 43 FA 00 00
 (017.607147)  can0  RX - -  060F8009   [8]  41 F0 00 21 43 FA 00 00
 (017.610776)  can0  TX - -  06080F81   [8]  03 00 00 1B 00 00 C8 00
 (017.612261)  can0  RX - -  060F8009   [8]  42 F0 00 1B 00 00 C8 00
 (017.613260)  can0  TX - -  06080F81   [8]  10 00 00 43 00 00 00 00
 (017.614746)  can0  RX - -  060F8009   [8]  42 F0 00 43 00 01 00 01
 (017.615741)  can0  TX - -  06080F81   [8]  10 00 00 4B 00 00 00 00
 (017.617204)  can0  RX - -  060F8009   [8]  42 F0 00 4B 00 00 00 03
 (017.618198)  can0  TX - -  06080F81   [8]  10 00 00 12 00 00 00 00
 (017.619734)  can0  RX - -  060F8009   [8]  41 F0 00 12 41 F0 00 00
 (017.620733)  can0  TX - -  06080F81   [8]  10 00 00 40 00 00 00 00
 (017.622285)  can0  RX - -  060F8009   [8]  42 F0 00 40 00 40 00 00
 (017.623292)  can0  TX - -  06080F81   [8]  10 00 00 48 00 00 00 00
 (017.624779)  can0  RX - -  060F8009   [8]  42 F0 00 48 00 00 00 00
 (017.625791)  can0  TX - -  06080F81   [8]  10 00 00 01 00 00 00 00
 (017.627320)  can0  RX - -  060F8009   [8]  41 F0 00 01 41 1C 2C 00
 (017.628323)  can0  TX - -  06080F81   [8]  10 00 00 02 00 00 00 00
 (017.629808)  can0  RX - -  060F8009   [8]  41 F0 00 02 00 00 00 00
 (017.630823)  can0  TX - -  06080F81   [8]  10 00 00 03 00 00 00 00
 (017.632296)  can0  RX - -  060F8009   [8]  41 F0 00 03 3F D5 40 00
 (017.633303)  can0  TX - -  06080F81   [8]  10 00 00 04 00 00 00 00
 (017.634775)  can0  RX - -  060F8009   [8]  41 F0 00 04 42 45 00 00
 (017.771633)  can0  TX - -  06080F81   [8]  03 00 00 30 00 00 00 00
 (017.773120)  can0  RX - -  060F8009   [8]  42 F0 00 30 00 00 00 00
 (017.775255)  can0  RX - -  075D000B   [8]  A0 01 10 08 01 80 04 81
 (017.781613)  can0  TX - -  06080F81   [8]  03 00 00 21 43 FA 00 00
 (017.783070)  can0  RX - -  060F8009   [8]  41 F0 00 21 43 FA 00 00
 (017.786801)  can0  TX - -  06080F81   [8]  03 00 00 1B 00 00 C8 00
 (017.788273)  can0  RX - -  060F8009   [8]  42 F0 00 1B 00 00 C8 00
 (017.789272)  can0  TX - -  06080F81   [8]  10 00 00 43 00 00 00 00
 (017.790750)  can0  RX - -  060F8009   [8]  42 F0 00 43 00 01 00 01
 (017.791745)  can0  TX - -  06080F81   [8]  10 00 00 4B 00 00 00 00
 (017.793191)  can0  RX - -  060F8009   [8]  42 F0 00 4B 00 00 00 03
 (017.794185)  can0  TX - -  06080F81   [8]  10 00 00 12 00 00 00 00
 (017.795722)  can0  RX - -  060F8009   [8]  41 F0 00 12 41 F0 00 00
 (017.796783)  can0  TX - -  06080F81   [8]  10 00 00 40 00 00 00 00
 (017.798213)  can0  RX - -  060F8009   [8]  42 F0 00 40 00 00 00 00
 (017.799219)  can0  TX - -  06080F81   [8]  10 00 00 48 00 00 00 00
 (017.800679)  can0  RX - -  060F8009   [8]  42 F0 00 48 00 00 00 38
 (017.801683)  can0  TX - -  06080F81   [8]  10 00 00 01 00 00 00 00
 (017.803184)  can0  RX - -  060F8009   [8]  41 F0 00 01 41 77 F4 00
 (017.804181)  can0  TX - -  06080F81   [8]  10 00 00 02 00 00 00 00
 (017.805658)  can0  RX - -  060F8009   [8]  41 F0 00 02 00 00 00 00
 (017.806657)  can0  TX - -  06080F81   [8]  10 00 00 03 00 00 00 00
 (017.808111)  can0  RX - -  060F8009   [8]  41 F0 00 03 3F D5 40 00
 (017.809124)  can0  TX - -  06080F81   [8]  10 00 00 04 00 00 00 00
 (017.810593)  can0  RX - -  060F8009   [8]  41 F0 00 04 42 45 00 00
 (017.911328)  can0  RX - -  0757F803   [8]  01 10 10 00 01 01 00 00
 (017.946698)  can0  TX - -  06080F81   [8]  03 00 00 21 43 FA 00 00
 (017.948178)  can0  RX - -  060F8009   [8]  41 F0 00 21 43 FA 00 00
 (017.951850)  can0  TX - -  06080F81   [8]  03 00 00 1B 00 00 C8 00
 (017.953329)  can0  RX - -  060F8009   [8]  42 F0 00 1B 00 00 C8 00
 (017.954334)  can0  TX - -  06080F81   [8]  10 00 00 43 00 00 00 00
 (017.955846)  can0  RX - -  060F8009   [8]  42 F0 00 43 00 01 00 01
 (017.956824)  can0  TX - -  06080F81   [8]  10 00 00 4B 00 00 00 00
 (017.958315)  can0  RX - -  060F8009   [8]  42 F0 00 4B 00 00 00 03
 (017.959309)  can0  TX - -  06080F81   [8]  10 00 00 12 00 00 00 00
 (017.960790)  can0  RX - -  060F8009   [8]  41 F0 00 12 41 F0 00 00
 (017.961786)  can0  TX - -  06080F81   [8]  10 00 00 40 00 00 00 00
 (017.963310)  can0  RX - -  060F8009   [8]  42 F0 00 40 00 00 00 00
 (017.964309)  can0  TX - -  06080F81   [8]  10 00 00 48 00 00 00 00
 (017.965795)  can0  RX - -  060F8009   [8]  42 F0 00 48 00 00 00 87
 (017.966804)  can0  TX - -  06080F81   [8]  10 00 00 01 00 00 00 00
 (017.968269)  can0  RX - -  060F8009   [8]  41 F0 00 01 42 66 8B 00
 (017.969291)  can0  TX - -  06080F81   [8]  10 00 00 02 00 00 00 00
 (017.970762)  can0  RX - -  060F8009   [8]  41 F0 00 02 00 00 00 00
 (017.971762)  can0  TX - -  06080F81   [8]  10 00 00 03 00 00 00 00
 (017.973255)  can0  RX - -  060F8009   [8]  41 F0 00 03 3F D5 40 00
 (017.974262)  can0  TX - -  06080F81   [8]  10 00 00 04 00 00 00 00
 (017.975709)  can0  RX - -  060F8009   [8]  41 F0 00 04 42 45 00 00
 (018.112819)  can0  TX - -  06080F81   [8]  03 00 00 21 43 FA 00 00
 (018.114279)  can0  RX - -  060F8009   [8]  41 F0 00 21 43 FA 00 00
 (018.117909)  can0  TX - -  06080F81   [8]  03 00 00 1B 00 00 C8 00
 (018.119380)  can0  RX - -  060F8009   [8]  42 F0 00 1B 00 00 C8 00
 (018.120375)  can0  TX - -  06080F81   [8]  10 00 00 43 00 00 00 00
 (018.121848)  can0  RX - -  060F8009   [8]  42 F0 00 43 00 01 00 01
 (018.122842)  can0  TX - -  06080F81   [8]  10 00 00 4B 00 00 00 00
 (018.124443)  can0  RX - -  060F8009   [8]  42 F0 00 4B 00 00 00 03
 (018.125435)  can0  TX - -  06080F81   [8]  10 00 00 12 00 00 00 00
 (018.126930)  can0  RX - -  060F8009   [8]  41 F0 00 12 41 F0 00 00
 (018.127929)  can0  TX - -  06080F81   [8]  10 00 00 40 00 00 00 00
 (018.129427)  can0  RX - -  060F8009   [8]  42 F0 00 40 00 00 00 00
 (018.130434)  can0  TX - -  06080F81   [8]  10 00 00 48 00 00 00 00
 (018.131884)  can0  RX - -  060F8009   [8]  42 F0 00 48 00 00 00 CF
 (018.132892)  can0  TX - -  06080F81   [8]  10 00 00 01 00 00 00 00
 (018.134338)  can0  RX - -  060F8009   [8]  41 F0 00 01 42 F8 CE 00
 (018.135348)  can0  TX - -  06080F81   [8]  10 00 00 02 00 00 00 00
 (018.136708)  can0  RX - -  0757F803   [8]  02 F0 00 02 01 01 00 00
 (018.137696)  can0  TX - -  06080F81   [8]  10 00 00 03 00 00 00 00
 (018.139040)  can0  RX - -  060F8009   [8]  41 F0 00 02 00 00 00 00
 (018.140041)  can0  TX - -  06080F81   [8]  10 00 00 04 00 00 00 00
 (018.141357)  can0  RX - -  060F8009   [8]  41 F0 00 03 3F D5 40 00
 (018.142533)  can0  RX - -  060F8009   [8]  41 F0 00 04 42 45 00 00
 (018.170234)  can0  RX - -  0757F80B   [8]  01 10 10 00 02 02 00 00
 (018.297868)  can0  TX - -  06080F81   [8]  03 00 00 21 43 FA 00 00
 (018.299350)  can0  RX - -  060F8009   [8]  41 F0 00 21 43 FA 00 00
 (018.302964)  can0  TX - -  06080F81   [8]  03 00 00 1B 00 00 C8 00
 (018.304469)  can0  RX - -  060F8009   [8]  42 F0 00 1B 00 00 C8 00
 (018.305448)  can0  TX - -  06080F81   [8]  10 00 00 43 00 00 00 00
 (018.306792)  can0  RX - -  0757F803   [8]  01 10 10 00 01 01 00 00
 (018.307783)  can0  TX - -  06080F81   [8]  10 00 00 4B 00 00 00 00
 (018.309104)  can0  RX - -  060F8009   [8]  42 F0 00 43 00 01 00 01
 (018.310097)  can0  TX - -  06080F81   [8]  10 00 00 12 00 00 00 00
 (018.311416)  can0  RX - -  060F8009   [8]  42 F0 00 4B 00 00 00 03
 (018.312420)  can0  TX - -  06080F81   [8]  10 00 00 40 00 00 00 00
 (018.313769)  can0  RX - -  060F8009   [8]  41 F0 00 12 41 F0 00 00
 (018.314780)  can0  TX - -  06080F81   [8]  10 00 00 48 00 00 00 00
 (018.316106)  can0  RX - -  060F8009   [8]  42 F0 00 40 00 00 00 00
 (018.317116)  can0  TX - -  06080F81   [8]  10 00 00 01 00 00 00 00
 (018.318479)  can0  RX - -  060F8009   [8]  42 F0 00 48 00 00 01 26
 (018.319429)  can0  TX - -  06080F81   [8]  10 00 00 02 00 00 00 00
 (018.320760)  can0  RX - -  060F8009   [8]  41 F0 00 01 43 68 C9 C0
 (018.321758)  can0  TX - -  06080F81   [8]  10 00 00 03 00 00 00 00
 (018.323103)  can0  RX - -  060F8009   [8]  41 F0 00 02 00 00 00 00
 (018.324108)  can0  TX - -  06080F81   [8]  10 00 00 04 00 00 00 00
 (018.325430)  can0  RX - -  060F8009   [8]  41 F0 00 03 3F D5 40 00
 (018.326611)  can0  RX - -  060F8009   [8]  41 F0 00 04 42 45 00 00
 (018.523637)  can0  TX - -  06080F81   [8]  03 00 00 21 43 FA 00 00
 (018.525099)  can0  RX - -  060F8009   [8]  41 F0 00 21 43 FA 00 00
 (018.528733)  can0  TX - -  06080F81   [8]  03 00 00 1B 00 00 C8 00
 (018.530226)  can0  RX - -  060F8009   [8]  42 F0 00 1B 00 00 C8 00
 (018.531221)  can0  TX - -  06080F81   [8]  10 00 00 43 00 00 00 00
 (018.532721)  can0  RX - -  060F8009   [8]  42 F0 00 43 00 01 00 01
 (018.533712)  can0  TX - -  06080F81   [8]  10 00 00 4B 00 00 00 00
 (018.535199)  can0  RX - -  060F8009   [8]  42 F0 00 4B 00 00 00 03
 (018.536215)  can0  TX - -  06080F81   [8]  10 00 00 12 00 00 00 00
 (018.537699)  can0  RX - -  060F8009   [8]  41 F0 00 12 41 F0 00 00
 (018.538688)  can0  TX - -  06080F81   [8]  10 00 00 40 00 00 00 00
 (018.540178)  can0  RX - -  060F8009   [8]  42 F0 00 40 00 00 00 00
 (018.541184)  can0  TX - -  06080F81   [8]  10 00 00 48 00 00 00 00
 (018.542641)  can0  RX - -  060F8009   [8]  42 F0 00 48 00 00 01 73
 (018.543648)  can0  TX - -  06080F81   [8]  10 00 00 01 00 00 00 00
 (018.545129)  can0  RX - -  060F8009   [8]  41 F0 00 01 43 B7 0F E0
 (018.546138)  can0  TX - -  06080F81   [8]  10 00 00 02 00 00 00 00
 (018.547619)  can0  RX - -  060F8009   [8]  41 F0 00 02 00 00 00 00
 (018.548637)  can0  TX - -  06080F81   [8]  10 00 00 03 00 00 00 00
 (018.550115)  can0  RX - -  060F8009   [8]  41 F0 00 03 3F D5 40 00
 (018.551123)  can0  TX - -  06080F81   [8]  10 00 00 04 00 00 00 00
 (018.552572)  can0  RX - -  060F8009   [8]  41 F0 00 04 42 45 00 00
 (018.565245)  can0  RX - -  0757F80B   [8]  01 10 10 00 02 02 00 00
 (018.689805)  can0  TX - -  06080F81   [8]  03 00 00 21 43 FA 00 00
 (018.691525)  can0  RX - -  060F8009   [8]  41 F0 00 21 43 FA 00 00
 (018.695456)  can0  TX - -  06080F81   [8]  03 00 00 1B 00 00 C8 00
 (018.696959)  can0  RX - -  060F8009   [8]  42 F0 00 1B 00 00 C8 00
 (018.697942)  can0  TX - -  06080F81   [8]  10 00 00 43 00 00 00 00
 (018.699442)  can0  RX - -  060F8009   [8]  42 F0 00 43 00 01 00 01
 (018.700456)  can0  TX - -  06080F81   [8]  10 00 00 4B 00 00 00 00
 (018.701773)  can0  RX - -  0757F803   [8]  01 10 10 00 01 01 00 00
 (018.702748)  can0  TX - -  06080F81   [8]  10 00 00 12 00 00 00 00
 (018.704061)  can0  RX - -  060F8009   [8]  42 F0 00 4B 00 00 00 03
 (018.705049)  can0  TX - -  06080F81   [8]  10 00 00 40 00 00 00 00
 (018.706416)  can0  RX - -  060F8009   [8]  41 F0 00 12 41 F0 00 00
 (018.707427)  can0  TX - -  06080F81   [8]  10 00 00 48 00 00 00 00
 (018.708744)  can0  RX - -  060F8009   [8]  42 F0 00 40 00 00 00 00
 (018.709761)  can0  TX - -  06080F81   [8]  10 00 00 01 00 00 00 00
 (018.711056)  can0  RX - -  060F8009   [8]  42 F0 00 48 00 00 01 C2
 (018.712068)  can0  TX - -  06080F81   [8]  10 00 00 02 00 00 00 00
 (018.713384)  can0  RX - -  060F8009   [8]  41 F0 00 01 43 E0 4D 40
 (018.714400)  can0  TX - -  06080F81   [8]  10 00 00 03 00 00 00 00
 (018.715740)  can0  RX - -  060F8009   [8]  41 F0 00 02 00 00 00 00
 (018.716758)  can0  TX - -  06080F81   [8]  10 00 00 04 00 00 00 00
 (018.718087)  can0  RX - -  060F8009   [8]  41 F0 00 03 3F D5 40 00
 (018.719263)  can0  RX - -  060F8009   [8]  41 F0 00 04 42 45 00 00
 (018.791169)  can0  RX - -  0757F80B   [8]  02 F0 00 02 02 02 00 00
 (018.857196)  can0  TX - -  06080F81   [8]  03 00 00 21 43 FA 00 00
 (018.858688)  can0  RX - -  060F8009   [8]  41 F0 00 21 43 FA 00 00
 (018.862340)  can0  TX - -  06080F81   [8]  03 00 00 1B 00 00 C8 00
 (018.863832)  can0  RX - -  060F8009   [8]  42 F0 00 1B 00 00 C8 00
 (018.864833)  can0  TX - -  06080F81   [8]  10 00 00 43 00 00 00 00
 (018.866391)  can0  RX - -  060F8009   [8]  42 F0 00 43 00 01 00 01
 (018.867386)  can0  TX - -  06080F81   [8]  10 00 00 4B 00 00 00 00
 (018.868833)  can0  RX - -  060F8009   [8]  42 F0 00 4B 00 00 00 03
 (018.869825)  can0  TX - -  06080F81   [8]  10 00 00 12 00 00 00 00
 (018.871436)  can0  RX - -  060F8009   [8]  41 F0 00 12 41 F0 00 00
 (018.872433)  can0  TX - -  06080F81   [8]  10 00 00 40 00 00 00 00
 (018.873927)  can0  RX - -  060F8009   [8]  42 F0 00 40 00 00 00 00
 (018.874948)  can0  TX - -  06080F81   [8]  10 00 00 48 00 00 00 00
 (018.876445)  can0  RX - -  060F8009   [8]  42 F0 00 48 00 00 01 E9
 (018.877440)  can0  TX - -  06080F81   [8]  10 00 00 01 00 00 00 00
 (018.878904)  can0  RX - -  060F8009   [8]  41 F0 00 01 43 F6 48 40
 (018.879915)  can0  TX - -  06080F81   [8]  10 00 00 02 00 00 00 00
 (018.881676)  can0  RX - -  060F8009   [8]  41 F0 00 02 00 00 00 00
 (018.882690)  can0  TX - -  06080F81   [8]  10 00 00 03 00 00 00 00
 (018.884347)  can0  RX - -  060F8009   [8]  41 F0 00 03 3F D5 40 00
 (018.885355)  can0  TX - -  06080F81   [8]  10 00 00 04 00 00 00 00
 (018.886802)  can0  RX - -  060F8009   [8]  41 F0 00 04 42 45 00 00
 (018.960345)  can0  RX - -  0757F80B   [8]  01 10 10 00 02 02 00 00
 (019.022239)  can0  TX - -  06080F81   [8]  03 00 00 21 43 FA 00 00
 (019.023736)  can0  RX - -  060F8009   [8]  41 F0 00 21 43 FA 00 00
 (019.027390)  can0  TX - -  06080F81   [8]  03 00 00 1B 00 00 C8 00
 (019.028897)  can0  RX - -  060F8009   [8]  42 F0 00 1B 00 00 C8 00
 (019.029893)  can0  TX - -  06080F81   [8]  10 00 00 43 00 00 00 00
 (019.031542)  can0  RX - -  060F8009   [8]  42 F0 00 43 00 01 00 01
 (019.032536)  can0  TX - -  06080F81   [8]  10 00 00 4B 00 00 00 00
 (019.034031)  can0  RX - -  060F8009   [8]  42 F0 00 4B 00 00 00 03
 (019.035022)  can0  TX - -  06080F81   [8]  10 00 00 12 00 00 00 00
 (019.036520)  can0  RX - -  060F8009   [8]  41 F0 00 12 41 F0 00 00
 (019.037518)  can0  TX - -  06080F81   [8]  10 00 00 40 00 00 00 00
 (019.039015)  can0  RX - -  060F8009   [8]  42 F0 00 40 00 00 00 00
 (019.040033)  can0  TX - -  06080F81   [8]  10 00 00 48 00 00 00 00
 (019.041531)  can0  RX - -  060F8009   [8]  42 F0 00 48 00 00 02 28
 (019.042515)  can0  TX - -  06080F81   [8]  10 00 00 01 00 00 00 00
 (019.043992)  can0  RX - -  060F8009   [8]  41 F0 00 01 43 F9 9E 20
 (019.044998)  can0  TX - -  06080F81   [8]  10 00 00 02 00 00 00 00
 (019.046456)  can0  RX - -  060F8009   [8]  41 F0 00 02 00 00 00 00
 (019.047472)  can0  TX - -  06080F81   [8]  10 00 00 03 00 00 00 00
 (019.048930)  can0  RX - -  060F8009   [8]  41 F0 00 03 3F D5 40 00
 (019.049937)  can0  TX - -  06080F81   [8]  10 00 00 04 00 00 00 00
 (019.051385)  can0  RX - -  060F8009   [8]  41 F0 00 04 42 45 00 00
 (019.096328)  can0  RX - -  0757F803   [8]  01 10 10 00 01 01 00 00
 (019.186997)  can0  TX - -  06080F81   [8]  03 00 00 21 43 FA 00 00
 (019.188465)  can0  RX - -  060F8009   [8]  41 F0 00 21 43 FA 00 00
 (019.192100)  can0  TX - -  06080F81   [8]  03 00 00 1B 00 00 C8 00
 (019.193547)  can0  RX - -  060F8009   [8]  42 F0 00 1B 00 00 C8 00
 (019.194540)  can0  TX - -  06080F81   [8]  10 00 00 43 00 00 00 00
 (019.196005)  can0  RX - -  060F8009   [8]  42 F0 00 43 00 01 00 01
 (019.196998)  can0  TX - -  06080F81   [8]  10 00 00 4B 00 00 00 00
 (019.198446)  can0  RX - -  060F8009   [8]  42 F0 00 4B 00 00 00 03
 (019.199437)  can0  TX - -  06080F81   [8]  10 00 00 12 00 00 00 00
 (019.200943)  can0  RX - -  060F8009   [8]  41 F0 00 12 41 F0 00 00
 (019.201942)  can0  TX - -  06080F81   [8]  10 00 00 40 00 00 00 00
 (019.203463)  can0  RX - -  060F8009   [8]  42 F0 00 40 00 00 00 00
 (019.204472)  can0  TX - -  06080F81   [8]  10 00 00 48 00 00 00 00
 (019.205927)  can0  RX - -  060F8009   [8]  42 F0 00 48 00 00 02 6E
 (019.206942)  can0  TX - -  06080F81   [8]  10 00 00 01 00 00 00 00
 (019.208471)  can0  RX - -  060F8009   [8]  41 F0 00 01 43 F9 BE 20
 (019.209428)  can0  TX - -  06080F81   [8]  10 00 00 02 00 00 00 00
 (019.210912)  can0  RX - -  060F8009   [8]  41 F0 00 02 00 00 00 00
 (019.211925)  can0  TX - -  06080F81   [8]  10 00 00 03 00 00 00 00
 (019.213415)  can0  RX - -  060F8009   [8]  41 F0 00 03 3F D5 40 00
 (019.214420)  can0  TX - -  06080F81   [8]  10 00 00 04 00 00 00 00
 (019.215900)  can0  RX - -  060F8009   [8]  41 F0 00 04 42 45 00 00
 (019.355332)  can0  RX - -  0757F80B   [8]  01 10 10 00 02 02 00 00
 (019.375358)  can0  TX - -  06080F81   [8]  03 00 00 21 43 FA 00 00
 (019.376832)  can0  RX - -  060F8009   [8]  41 F0 00 21 43 FA 00 00
 (019.380463)  can0  TX - -  06080F81   [8]  03 00 00 1B 00 00 C8 00
 (019.381964)  can0  RX - -  060F8009   [8]  42 F0 00 1B 00 00 C8 00
 (019.382963)  can0  TX - -  06080F81   [8]  10 00 00 43 00 00 00 00
 (019.384430)  can0  RX - -  060F8009   [8]  42 F0 00 43 00 01 00 01
 (019.385420)  can0  TX - -  06080F81   [8]  10 00 00 4B 00 00 00 00
 (019.386868)  can0  RX - -  060F8009   [8]  42 F0 00 4B 00 00 00 03
 (019.387861)  can0  TX - -  06080F81   [8]  10 00 00 12 00 00 00 00
 (019.389374)  can0  RX - -  060F8009   [8]  41 F0 00 12 41 F0 00 00
 (019.390373)  can0  TX - -  06080F81   [8]  10 00 00 40 00 00 00 00
 (019.391861)  can0  RX - -  060F8009   [8]  42 F0 00 40 00 00 00 00
 (019.392871)  can0  TX - -  06080F81   [8]  10 00 00 48 00 00 00 00
 (019.394335)  can0  RX - -  060F8009   [8]  42 F0 00 48 00 00 02 B3
 (019.395335)  can0  TX - -  06080F81   [8]  10 00 00 01 00 00 00 00
 (019.396810)  can0  RX - -  060F8009   [8]  41 F0 00 01 43 F9 D2 60
 (019.397807)  can0  TX - -  06080F81   [8]  10 00 00 02 00 00 00 00
 (019.399295)  can0  RX - -  060F8009   [8]  41 F0 00 02 00 00 00 00
 (019.400311)  can0  TX - -  06080F81   [8]  10 00 00 03 00 00 00 00
 (019.401784)  can0  RX - -  060F8009   [8]  41 F0 00 03 3F D5 40 00
 (019.402792)  can0  TX - -  06080F81   [8]  10 00 00 04 00 00 00 00
 (019.404240)  can0  RX - -  060F8009   [8]  41 F0 00 04 42 45 00 00
 (019.491347)  can0  RX - -  0757F803   [8]  01 10 10 00 01 01 00 00
 (019.560468)  can0  TX - -  06080F81   [8]  03 00 00 21 43 FA 00 00
 (019.561917)  can0  RX - -  060F8009   [8]  41 F0 00 21 43 FA 00 00
 (019.565542)  can0  TX - -  06080F81   [8]  03 00 00 1B 00 00 C8 00
 (019.567046)  can0  RX - -  060F8009   [8]  42 F0 00 1B 00 00 C8 00
 (019.568047)  can0  TX - -  06080F81   [8]  10 00 00 43 00 00 00 00
 (019.569509)  can0  RX - -  060F8009   [8]  42 F0 00 43 00 01 00 01
 (019.570501)  can0  TX - -  06080F81   [8]  10 00 00 4B 00 00 00 00
 (019.571965)  can0  RX - -  060F8009   [8]  42 F0 00 4B 00 00 00 03
 (019.572972)  can0  TX - -  06080F81   [8]  10 00 00 12 00 00 00 00
 (019.574487)  can0  RX - -  060F8009   [8]  41 F0 00 12 41 F0 00 00
 (019.575471)  can0  TX - -  06080F81   [8]  10 00 00 40 00 00 00 00
 (019.576959)  can0  RX - -  060F8009   [8]  42 F0 00 40 00 00 00 00
 (019.577966)  can0  TX - -  06080F81   [8]  10 00 00 48 00 00 00 00
 (019.579415)  can0  RX - -  060F8009   [8]  42 F0 00 48 00 00 02 CD
 (019.580425)  can0  TX - -  06080F81   [8]  10 00 00 01 00 00 00 00
 (019.581863)  can0  RX - -  060F8009   [8]  41 F0 00 01 43 F9 DF 20
 (019.582863)  can0  TX - -  06080F81   [8]  10 00 00 02 00 00 00 00
 (019.584344)  can0  RX - -  060F8009   [8]  41 F0 00 02 00 00 00 00
 (019.585360)  can0  TX - -  06080F81   [8]  10 00 00 03 00 00 00 00
 (019.586816)  can0  RX - -  060F8009   [8]  41 F0 00 03 3F D5 40 00
 (019.587824)  can0  TX - -  06080F81   [8]  10 00 00 04 00 00 00 00
 (019.589283)  can0  RX - -  060F8009   [8]  41 F0 00 04 42 45 00 00
 (019.728785)  can0  TX - -  06080F81   [8]  03 00 00 23 44 00 C0 00
 (019.730283)  can0  RX - -  060F8009   [8]  41 F0 00 23 44 00 C0 00
 (019.733922)  can0  TX - -  06080F81   [8]  03 00 00 22 3D 88 88 89
 (019.735402)  can0  RX - -  060F8009   [8]  41 F0 00 22 3D 88 88 89
 (019.739276)  can0  TX - -  06080F81   [8]  03 00 00 21 43 FA 00 00
 (019.740839)  can0  RX - -  060F8009   [8]  41 F0 00 21 43 FA 00 00
 (019.744646)  can0  TX - -  06080F81   [8]  03 00 00 1B 00 00 08 00
 (019.746080)  can0  RX - -  060F8009   [8]  42 F0 00 1B 00 00 08 00
 (019.747044)  can0  TX - -  06080F81   [8]  10 00 00 43 00 00 00 00
 (019.748568)  can0  RX - -  060F8009   [8]  42 F0 00 43 00 01 00 01
 (019.749547)  can0  TX - -  06080F81   [8]  10 00 00 4B 00 00 00 00
 (019.750867)  can0  RX - -  0757F80B   [8]  01 10 10 00 02 02 00 00
 (019.751877)  can0  TX - -  06080F81   [8]  10 00 00 12 00 00 00 00
 (019.753178)  can0  RX - -  060F8009   [8]  42 F0 00 4B 00 00 00 03
 (019.754183)  can0  TX - -  06080F81   [8]  10 00 00 40 00 00 00 00
 (019.755544)  can0  RX - -  060F8009   [8]  41 F0 00 12 41 F0 00 00
 (019.756530)  can0  TX - -  06080F81   [8]  10 00 00 48 00 00 00 00
 (019.757869)  can0  RX - -  060F8009   [8]  42 F0 00 40 00 00 00 00
 (019.758882)  can0  TX - -  06080F81   [8]  10 00 00 01 00 00 00 00
 (019.760202)  can0  RX - -  060F8009   [8]  42 F0 00 48 00 00 03 2B
 (019.761217)  can0  TX - -  06080F81   [8]  10 00 00 02 00 00 00 00
 (019.762532)  can0  RX - -  060F8009   [8]  41 F0 00 01 43 F9 E7 20
 (019.763528)  can0  TX - -  06080F81   [8]  10 00 00 03 00 00 00 00
 (019.764896)  can0  RX - -  060F8009   [8]  41 F0 00 02 00 00 00 00
 (019.765876)  can0  TX - -  06080F81   [8]  10 00 00 04 00 00 00 00
 (019.767194)  can0  RX - -  060F8009   [8]  41 F0 00 03 3F D5 40 00
 (019.768440)  can0  RX - -  060F8009   [8]  41 F0 00 04 42 45 00 00
 (019.886299)  can0  RX - -  0757F803   [8]  01 10 10 00 01 01 12 C0
 (019.904905)  can0  TX - -  06080F81   [8]  03 00 00 21 43 FA 00 00
 (019.906429)  can0  RX - -  060F8009   [8]  41 F0 00 21 43 FA 00 00
 (019.910117)  can0  TX - -  06080F81   [8]  03 00 00 1B 00 00 08 00
 (019.911567)  can0  RX - -  060F8009   [8]  42 F0 00 1B 00 00 08 00
 (019.912567)  can0  TX - -  06080F81   [8]  10 00 00 43 00 00 00 00
 (019.914036)  can0  RX - -  060F8009   [8]  42 F0 00 43 00 01 00 01
 (019.915028)  can0  TX - -  06080F81   [8]  10 00 00 4B 00 00 00 00
 (019.916494)  can0  RX - -  060F8009   [8]  42 F0 00 4B 00 00 00 03
 (019.917485)  can0  TX - -  06080F81   [8]  10 00 00 12 00 00 00 00
 (019.918997)  can0  RX - -  060F8009   [8]  41 F0 00 12 41 F0 00 00
 (019.919998)  can0  TX - -  06080F81   [8]  10 00 00 40 00 00 00 00
 (019.921526)  can0  RX - -  060F8009   [8]  42 F0 00 40 00 00 00 00
 (019.922536)  can0  TX - -  06080F81   [8]  10 00 00 48 00 00 00 00
 (019.924012)  can0  RX - -  060F8009   [8]  42 F0 00 48 00 00 03 48
 (019.925004)  can0  TX - -  06080F81   [8]  10 00 00 01 00 00 00 00
 (019.926447)  can0  RX - -  060F8009   [8]  41 F0 00 01 43 E3 2E 20
 (019.927447)  can0  TX - -  06080F81   [8]  10 00 00 02 00 00 00 00
 (019.928960)  can0  RX - -  060F8009   [8]  41 F0 00 02 41 9C EC 00
 (019.929960)  can0  TX - -  06080F81   [8]  10 00 00 03 00 00 00 00
 (019.931727)  can0  RX - -  060F8009   [8]  41 F0 00 03 3F D5 40 00
 (019.932736)  can0  TX - -  06080F81   [8]  10 00 00 04 00 00 00 00
 (019.934196)  can0  RX - -  060F8009   [8]  41 F0 00 04 42 45 00 00
 (020.070172)  can0  TX - -  06080F81   [8]  03 00 00 21 43 FA 00 00
 (020.071627)  can0  RX - -  060F8009   [8]  41 F0 00 21 43 FA 00 00
 (020.075335)  can0  TX - -  06080F81   [8]  03 00 00 1B 00 00 08 00
 (020.076810)  can0  RX - -  060F8009   [8]  42 F0 00 1B 00 00 08 00
 (020.077805)  can0  TX - -  06080F81   [8]  10 00 00 43 00 00 00 00
 (020.079294)  can0  RX - -  060F8009   [8]  42 F0 00 43 00 01 00 01
 (020.080286)  can0  TX - -  06080F81   [8]  10 00 00 4B 00 00 00 00
 (020.081754)  can0  RX - -  060F8009   [8]  42 F0 00 4B 00 00 00 03
 (020.082746)  can0  TX - -  06080F81   [8]  10 00 00 12 00 00 00 00
 (020.084268)  can0  RX - -  060F8009   [8]  41 F0 00 12 41 F0 00 00
 (020.085268)  can0  TX - -  06080F81   [8]  10 00 00 40 00 00 00 00
 (020.086773)  can0  RX - -  060F8009   [8]  42 F0 00 40 00 00 00 00
 (020.087780)  can0  TX - -  06080F81   [8]  10 00 00 48 00 00 00 00
 (020.089253)  can0  RX - -  060F8009   [8]  42 F0 00 48 00 00 03 F1
 (020.090260)  can0  TX - -  06080F81   [8]  10 00 00 01 00 00 00 00
 (020.091732)  can0  RX - -  060F8009   [8]  41 F0 00 01 43 CB 31 20
 (020.092747)  can0  TX - -  06080F81   [8]  10 00 00 02 00 00 00 00
 (020.094232)  can0  RX - -  060F8009   [8]  41 F0 00 02 41 AB C4 00
 (020.095245)  can0  TX - -  06080F81   [8]  10 00 00 03 00 00 00 00
 (020.096716)  can0  RX - -  060F8009   [8]  41 F0 00 03 3F D5 40 00
 (020.097718)  can0  TX - -  06080F81   [8]  10 00 00 04 00 00 00 00
 (020.099181)  can0  RX - -  060F8009   [8]  41 F0 00 04 42 45 01 00
 (020.145301)  can0  RX - -  0757F80B   [8]  01 10 10 00 02 02 00 00
 (020.255378)  can0  TX - -  06080F81   [8]  03 00 00 21 43 FA 00 00
 (020.256877)  can0  RX - -  060F8009   [8]  41 F0 00 21 43 FA 00 00
 (020.260510)  can0  TX - -  06080F81   [8]  03 00 00 1B 00 00 08 00
 (020.262001)  can0  RX - -  060F8009   [8]  42 F0 00 1B 00 00 08 00
 (020.263000)  can0  TX - -  06080F81   [8]  10 00 00 43 00 00 00 00
 (020.264474)  can0  RX - -  060F8009   [8]  42 F0 00 43 00 01 00 01
 (020.265465)  can0  TX - -  06080F81   [8]  10 00 00 4B 00 00 00 00
 (020.266930)  can0  RX - -  060F8009   [8]  42 F0 00 4B 00 00 00 03
 (020.267966)  can0  TX - -  06080F81   [8]  10 00 00 12 00 00 00 00
 (020.269436)  can0  RX - -  060F8009   [8]  41 F0 00 12 41 F0 00 00
 (020.270434)  can0  TX - -  06080F81   [8]  10 00 00 40 00 00 00 00
 (020.271930)  can0  RX - -  060F8009   [8]  42 F0 00 40 00 00 00 00
 (020.272940)  can0  TX - -  06080F81   [8]  10 00 00 48 00 00 00 00
 (020.274422)  can0  RX - -  060F8009   [8]  42 F0 00 48 00 00 05 81
 (020.275415)  can0  TX - -  06080F81   [8]  10 00 00 01 00 00 00 00
 (020.276845)  can0  RX - -  060F8009   [8]  41 F0 00 01 43 B2 6D C0
 (020.277844)  can0  TX - -  06080F81   [8]  10 00 00 02 00 00 00 00
 (020.279325)  can0  RX - -  060F8009   [8]  41 F0 00 02 41 BA F4 00
 (020.280340)  can0  TX - -  06080F81   [8]  10 00 00 03 00 00 00 00
 (020.281669)  can0  RX - -  075D0003   [8]  10 F0 03 C0 54 00 00 00
 (020.282677)  can0  TX - -  06080F81   [8]  10 00 00 04 00 00 00 00
 (020.283997)  can0  RX - -  060F8009   [8]  41 F0 00 03 3F D5 40 00
 (020.285159)  can0  RX - -  060F8009   [8]  41 F0 00 04 42 45 01 00
 (020.460708)  can0  TX - -  06080F81   [8]  03 00 00 21 43 FA 00 00
 (020.462181)  can0  RX - -  060F8009   [8]  41 F0 00 21 43 FA 00 00
 (020.465853)  can0  TX - -  06080F81   [8]  03 00 00 1B 00 00 08 00
 (020.467328)  can0  RX - -  060F8009   [8]  42 F0 00 1B 00 00 08 00
 (020.468327)  can0  TX - -  06080F81   [8]  10 00 00 43 00 00 00 00
 (020.469807)  can0  RX - -  060F8009   [8]  42 F0 00 43 00 01 00 01
 (020.470800)  can0  TX - -  06080F81   [8]  10 00 00 4B 00 00 00 00
 (020.472271)  can0  RX - -  060F8009   [8]  42 F0 00 4B 00 00 00 03
 (020.473258)  can0  TX - -  06080F81   [8]  10 00 00 12 00 00 00 00
 (020.474806)  can0  RX - -  060F8009   [8]  41 F0 00 12 41 F0 00 00
 (020.475766)  can0  TX - -  06080F81   [8]  10 00 00 40 00 00 00 00
 (020.477269)  can0  RX - -  060F8009   [8]  42 F0 00 40 00 00 00 00
 (020.478275)  can0  TX - -  06080F81   [8]  10 00 00 48 00 00 00 00
 (020.479723)  can0  RX - -  060F8009   [8]  42 F0 00 48 00 00 07 8A
 (020.480731)  can0  TX - -  06080F81   [8]  10 00 00 01 00 00 00 00
 (020.482177)  can0  RX - -  060F8009   [8]  41 F0 00 01 43 99 99 C0
 (020.483178)  can0  TX - -  06080F81   [8]  10 00 00 02 00 00 00 00
 (020.484631)  can0  RX - -  060F8009   [8]  41 F0 00 02 41 CA 3E 00
 (020.485644)  can0  TX - -  06080F81   [8]  10 00 00 03 00 00 00 00
 (020.487115)  can0  RX - -  060F8009   [8]  41 F0 00 03 3F D5 40 00
 (020.488132)  can0  TX - -  06080F81   [8]  10 00 00 04 00 00 00 00
 (020.489581)  can0  RX - -  060F8009   [8]  41 F0 00 04 42 45 01 00
 (020.540261)  can0  RX - -  0757F80B   [8]  01 10 10 00 02 02 00 00
 (020.646102)  can0  TX - -  06080F81   [8]  03 00 00 21 43 FA 00 00
 (020.647599)  can0  RX - -  060F8009   [8]  41 F0 00 21 43 FA 00 00
 (020.651234)  can0  TX - -  06080F81   [8]  03 00 00 1B 00 00 08 00
 (020.652740)  can0  RX - -  060F8009   [8]  42 F0 00 1B 00 00 08 00
 (020.653734)  can0  TX - -  06080F81   [8]  10 00 00 43 00 00 00 00
 (020.655214)  can0  RX - -  060F8009   [8]  42 F0 00 43 00 01 00 01
 (020.656210)  can0  TX - -  06080F81   [8]  10 00 00 4B 00 00 00 00
 (020.657663)  can0  RX - -  060F8009   [8]  42 F0 00 4B 00 00 00 03
 (020.658681)  can0  TX - -  06080F81   [8]  10 00 00 12 00 00 00 00
 (020.660214)  can0  RX - -  060F8009   [8]  41 F0 00 12 41 F0 00 00
 (020.661196)  can0  TX - -  06080F81   [8]  10 00 00 40 00 00 00 00
 (020.662698)  can0  RX - -  060F8009   [8]  42 F0 00 40 00 00 00 00
 (020.663701)  can0  TX - -  06080F81   [8]  10 00 00 48 00 00 00 00
 (020.665129)  can0  RX - -  060F8009   [8]  42 F0 00 48 00 00 08 C2
 (020.666132)  can0  TX - -  06080F81   [8]  10 00 00 01 00 00 00 00
 (020.667581)  can0  RX - -  060F8009   [8]  41 F0 00 01 43 90 F1 00
 (020.668552)  can0  TX - -  06080F81   [8]  10 00 00 02 00 00 00 00
 (020.670058)  can0  RX - -  060F8009   [8]  41 F0 00 02 41 D9 68 00
 (020.671060)  can0  TX - -  06080F81   [8]  10 00 00 03 00 00 00 00
 (020.672585)  can0  RX - -  060F8009   [8]  41 F0 00 03 3F D5 40 00
 (020.673576)  can0  TX - -  06080F81   [8]  10 00 00 04 00 00 00 00
 (020.675052)  can0  RX - -  060F8009   [8]  41 F0 00 04 42 45 01 00
 (020.676296)  can0  RX - -  0757F803   [8]  01 10 10 00 01 01 1B 31
 (020.811910)  can0  TX - -  06080F81   [8]  03 00 00 23 44 00 C0 00
 (020.813412)  can0  RX - -  060F8009   [8]  41 F0 00 23 44 00 C0 00
 (020.817029)  can0  TX - -  06080F81   [8]  03 00 00 22 3F 80 00 00
 (020.818531)  can0  RX - -  060F8009   [8]  41 F0 00 22 3F 80 00 00
 (020.822315)  can0  TX - -  06080F81   [8]  03 00 00 21 43 FA 00 00
 (020.823835)  can0  RX - -  060F8009   [8]  41 F0 00 21 43 FA 00 00
 (020.827402)  can0  TX - -  06080F81   [8]  03 00 00 1B 00 00 C8 00
 (020.828866)  can0  RX - -  060F8009   [8]  42 F0 00 1B 00 00 C8 00
 (020.829881)  can0  TX - -  06080F81   [8]  10 00 00 43 00 00 00 00
 (020.831612)  can0  RX - -  060F8009   [8]  42 F0 00 43 00 01 00 01
 (020.832611)  can0  TX - -  06080F81   [8]  10 00 00 4B 00 00 00 00
 (020.834071)  can0  RX - -  060F8009   [8]  42 F0 00 4B 00 00 00 03
 (020.835217)  can0  TX - -  06080F81   [8]  10 00 00 12 00 00 00 00
 (020.836589)  can0  RX - -  060F8009   [8]  41 F0 00 12 41 F0 00 00
 (020.837558)  can0  TX - -  06080F81   [8]  10 00 00 40 00 00 00 00
 (020.839118)  can0  RX - -  060F8009   [8]  42 F0 00 40 00 00 00 00
 (020.840078)  can0  TX - -  06080F81   [8]  10 00 00 48 00 00 00 00
 (020.841543)  can0  RX - -  060F8009   [8]  42 F0 00 48 00 00 0C 8D
 (020.842540)  can0  TX - -  06080F81   [8]  10 00 00 01 00 00 00 00
 (020.844047)  can0  RX - -  060F8009   [8]  41 F0 00 01 43 9A 34 80
 (020.845039)  can0  TX - -  06080F81   [8]  10 00 00 02 00 00 00 00
 (020.846535)  can0  RX - -  060F8009   [8]  41 F0 00 02 41 E8 B8 00
 (020.847545)  can0  TX - -  06080F81   [8]  10 00 00 03 00 00 00 00
 (020.849044)  can0  RX - -  060F8009   [8]  41 F0 00 03 3F D5 40 00
 (020.850031)  can0  TX - -  06080F81   [8]  10 00 00 04 00 00 00 00
 (020.851478)  can0  RX - -  060F8009   [8]  41 F0 00 04 42 45 01 00
 (020.935485)  can0  RX - -  075D000B   [8]  10 F0 03 C0 02 00 00 00
 (021.071469)  can0  RX - -  0757F803   [8]  01 10 10 00 01 01 1F 0A
 (021.171693)  can0  RX - -  0757F803   [8]  02 F0 00 02 01 01 00 00
 (021.291236)  can0  TX - -  06080F81   [8]  03 00 00 21 43 FA 00 00
 (021.292735)  can0  RX - -  060F8009   [8]  41 F0 00 21 43 FA 00 00
 (021.296417)  can0  TX - -  06080F81   [8]  03 00 00 1B 00 00 C8 00
 (021.297867)  can0  RX - -  060F8009   [8]  42 F0 00 1B 00 00 C8 00
 (021.298866)  can0  TX - -  06080F81   [8]  10 00 00 43 00 00 00 00
 (021.300315)  can0  RX - -  060F8009   [8]  42 F0 00 43 00 01 00 01
 (021.301327)  can0  TX - -  06080F81   [8]  10 00 00 4B 00 00 00 00
 (021.302772)  can0  RX - -  060F8009   [8]  42 F0 00 4B 00 00 00 03
 (021.303764)  can0  TX - -  06080F81   [8]  10 00 00 12 00 00 00 00
 (021.305235)  can0  RX - -  060F8009   [8]  41 F0 00 12 41 F0 00 00
 (021.306232)  can0  TX - -  06080F81   [8]  10 00 00 40 00 00 00 00
 (021.307746)  can0  RX - -  060F8009   [8]  42 F0 00 40 00 00 00 00
 (021.308784)  can0  TX - -  06080F81   [8]  10 00 00 48 00 00 00 00
 (021.310204)  can0  RX - -  060F8009   [8]  42 F0 00 48 00 00 13 24
 (021.311206)  can0  TX - -  06080F81   [8]  10 00 00 01 00 00 00 00
 (021.312647)  can0  RX - -  060F8009   [8]  41 F0 00 01 43 B5 A9 C0
 (021.313647)  can0  TX - -  06080F81   [8]  10 00 00 02 00 00 00 00
 (021.315127)  can0  RX - -  060F8009   [8]  41 F0 00 02 42 04 20 00
 (021.316142)  can0  TX - -  06080F81   [8]  10 00 00 03 00 00 00 00
 (021.317622)  can0  RX - -  060F8009   [8]  41 F0 00 03 3F D5 40 00
 (021.318630)  can0  TX - -  06080F81   [8]  10 00 00 04 00 00 00 00
 (021.320101)  can0  RX - -  060F8009   [8]  41 F0 00 04 42 45 01 00
 (021.330311)  can0  RX - -  0757F80B   [8]  01 10 10 00 02 02 00 00
 (021.456236)  can0  TX - -  06080F81   [8]  03 00 00 1B 00 00 00 00
 (021.457716)  can0  RX - -  060F8009   [8]  42 F0 00 1B 00 00 00 00
 (021.466306)  can0  RX - -  0757F803   [8]  01 10 10 00 01 01 22 D7
 (021.467294)  can0  TX - -  06080F81   [8]  03 00 00 22 00 00 00 00
 (021.468801)  can0  RX - -  060F8009   [8]  41 F0 00 22 00 00 00 00
 (021.476606)  can0  TX - -  06080F81   [8]  03 00 00 30 00 01 00 00
 (021.478047)  can0  RX - -  060F8009   [8]  42 F0 00 30 00 01 00 00
 (021.479040)  can0  TX - -  06080F81   [8]  10 00 00 43 00 00 00 00
 (021.480530)  can0  RX - -  060F8009   [8]  42 F0 00 43 00 01 00 01
 (021.481523)  can0  TX - -  06080F81   [8]  10 00 00 4B 00 00 00 00
 (021.482969)  can0  RX - -  060F8009   [8]  42 F0 00 4B 00 00 00 03
 (021.483967)  can0  TX - -  06080F81   [8]  10 00 00 12 00 00 00 00
 (021.485479)  can0  RX - -  060F8009   [8]  41 F0 00 12 41 F0 00 00
 (021.486473)  can0  TX - -  06080F81   [8]  10 00 00 40 00 00 00 00
 (021.487964)  can0  RX - -  060F8009   [8]  42 F0 00 40 00 00 00 00
 (021.488972)  can0  TX - -  06080F81   [8]  10 00 00 48 00 00 00 00
 (021.490419)  can0  RX - -  060F8009   [8]  42 F0 00 48 00 00 15 C6
 (021.491426)  can0  TX - -  06080F81   [8]  10 00 00 01 00 00 00 00
 (021.492853)  can0  RX - -  060F8009   [8]  41 F0 00 01 43 C1 59 20
 (021.493859)  can0  TX - -  06080F81   [8]  10 00 00 02 00 00 00 00
 (021.495309)  can0  RX - -  060F8009   [8]  41 F0 00 02 00 00 00 00
 (021.496326)  can0  TX - -  06080F81   [8]  10 00 00 03 00 00 00 00
 (021.497821)  can0  RX - -  060F8009   [8]  41 F0 00 03 3C 50 00 00
 (021.498829)  can0  TX - -  06080F81   [8]  10 00 00 04 00 00 00 00
 (021.500276)  can0  RX - -  060F8009   [8]  41 F0 00 04 42 45 01 00
 (021.656591)  can0  TX - -  06080F81   [8]  10 00 00 43 00 00 00 00
 (021.658062)  can0  RX - -  060F8009   [8]  42 F0 00 43 00 01 00 01
 (021.659048)  can0  TX - -  06080F81   [8]  10 00 00 4B 00 00 00 00
 (021.660553)  can0  RX - -  060F8009   [8]  42 F0 00 4B 00 00 00 03
 (021.661552)  can0  TX - -  06080F81   [8]  10 00 00 12 00 00 00 00
 (021.663078)  can0  RX - -  060F8009   [8]  41 F0 00 12 41 F0 00 00
 (021.664064)  can0  TX - -  06080F81   [8]  10 00 00 40 00 00 00 00
 (021.665607)  can0  RX - -  060F8009   [8]  42 F0 00 40 00 00 00 00
 (021.666589)  can0  TX - -  06080F81   [8]  10 00 00 48 00 00 00 00
 (021.668073)  can0  RX - -  060F8009   [8]  42 F0 00 48 00 00 18 B5
 (021.669076)  can0  TX - -  06080F81   [8]  10 00 00 01 00 00 00 00
 (021.670565)  can0  RX - -  060F8009   [8]  41 F0 00 01 43 A3 FD 20
 (021.671558)  can0  TX - -  06080F81   [8]  10 00 00 02 00 00 00 00
 (021.673041)  can0  RX - -  060F8009   [8]  41 F0 00 02 00 00 00 00
 (021.674044)  can0  TX - -  06080F81   [8]  10 00 00 03 00 00 00 00
 (021.675558)  can0  RX - -  060F8009   [8]  41 F0 00 03 3C 50 00 00
 (021.676612)  can0  TX - -  06080F81   [8]  10 00 00 04 00 00 00 00
 (021.678038)  can0  RX - -  060F8009   [8]  41 F0 00 04 42 45 01 00
 (021.725447)  can0  RX - -  0757F80B   [8]  01 10 10 00 02 02 00 00
 (021.817388)  can0  TX - -  06080F81   [8]  10 00 00 43 00 00 00 00
 (021.818869)  can0  RX - -  060F8009   [8]  42 F0 00 43 00 01 00 01
 (021.819863)  can0  TX - -  06080F81   [8]  10 00 00 4B 00 00 00 00
 (021.821533)  can0  RX - -  060F8009   [8]  42 F0 00 4B 00 00 00 03
 (021.822537)  can0  TX - -  06080F81   [8]  10 00 00 12 00 00 00 00
 (021.824037)  can0  RX - -  060F8009   [8]  41 F0 00 12 41 F0 00 00
 (021.825050)  can0  TX - -  06080F81   [8]  10 00 00 40 00 00 00 00
 (021.826362)  can0  RX - -  0757F80B   [8]  02 F0 00 02 02 02 00 00
 (021.827365)  can0  TX - -  06080F81   [8]  10 00 00 48 00 00 00 00
 (021.828706)  can0  RX - -  060F8009   [8]  42 F0 00 40 00 00 00 00
 (021.829705)  can0  TX - -  06080F81   [8]  10 00 00 01 00 00 00 00
 (021.831041)  can0  RX - -  060F8009   [8]  42 F0 00 48 00 00 00 00
 (021.832039)  can0  TX - -  06080F81   [8]  10 00 00 02 00 00 00 00
 (021.833359)  can0  RX - -  060F8009   [8]  41 F0 00 01 43 7F 8E 40
 (021.834375)  can0  TX - -  06080F81   [8]  10 00 00 03 00 00 00 00
 (021.835721)  can0  RX - -  060F8009   [8]  41 F0 00 02 00 00 00 00
 (021.836729)  can0  TX - -  06080F81   [8]  10 00 00 04 00 00 00 00
 (021.838062)  can0  RX - -  060F8009   [8]  41 F0 00 03 3C 50 00 00
 (021.839227)  can0  RX - -  060F8009   [8]  41 F0 00 04 42 45 00 00
 (021.861421)  can0  RX - -  0757F803   [8]  01 10 10 00 01 01 00 00
 (021.977111)  can0  TX - -  06080F81   [8]  10 00 00 43 00 00 00 00
 (021.978588)  can0  RX - -  060F8009   [8]  42 F0 00 43 00 01 00 01
 (021.979557)  can0  TX - -  06080F81   [8]  10 00 00 4B 00 00 00 00
 (021.981044)  can0  RX - -  060F8009   [8]  42 F0 00 4B 00 00 00 03
 (021.982036)  can0  TX - -  06080F81   [8]  10 00 00 12 00 00 00 00
 (021.983508)  can0  RX - -  060F8009   [8]  41 F0 00 12 41 F0 00 00
 (021.984508)  can0  TX - -  06080F81   [8]  10 00 00 40 00 00 00 00
 (021.986043)  can0  RX - -  060F8009   [8]  42 F0 00 40 00 00 00 00
 (021.987051)  can0  TX - -  06080F81   [8]  10 00 00 48 00 00 00 00
 (021.988525)  can0  RX - -  060F8009   [8]  42 F0 00 48 00 00 00 00
 (021.989540)  can0  TX - -  06080F81   [8]  10 00 00 01 00 00 00 00
 (021.991014)  can0  RX - -  060F8009   [8]  41 F0 00 01 43 33 36 00
 (021.992013)  can0  TX - -  06080F81   [8]  10 00 00 02 00 00 00 00
 (021.993504)  can0  RX - -  060F8009   [8]  41 F0 00 02 00 00 00 00
 (021.994518)  can0  TX - -  06080F81   [8]  10 00 00 03 00 00 00 00
 (021.996017)  can0  RX - -  060F8009   [8]  41 F0 00 03 3C 50 00 00
 (021.997025)  can0  TX - -  06080F81   [8]  10 00 00 04 00 00 00 00
 (021.998469)  can0  RX - -  060F8009   [8]  41 F0 00 04 42 45 00 00
 (022.120298)  can0  RX - -  0757F80B   [8]  01 10 10 00 02 02 00 00
 (022.157240)  can0  TX - -  06080F81   [8]  10 00 00 43 00 00 00 00
 (022.158706)  can0  RX - -  060F8009   [8]  42 F0 00 43 00 01 00 01
 (022.159699)  can0  TX - -  06080F81   [8]  10 00 00 4B 00 00 00 00
 (022.161170)  can0  RX - -  060F8009   [8]  42 F0 00 4B 00 00 00 03
 (022.162162)  can0  TX - -  06080F81   [8]  10 00 00 12 00 00 00 00
 (022.163667)  can0  RX - -  060F8009   [8]  41 F0 00 12 41 F0 00 00
 (022.164668)  can0  TX - -  06080F81   [8]  10 00 00 40 00 00 00 00
 (022.166187)  can0  RX - -  060F8009   [8]  42 F0 00 40 00 00 00 00
 (022.167195)  can0  TX - -  06080F81   [8]  10 00 00 48 00 00 00 00
 (022.168669)  can0  RX - -  060F8009   [8]  42 F0 00 48 00 00 00 00
 (022.169676)  can0  TX - -  06080F81   [8]  10 00 00 01 00 00 00 00
 (022.171124)  can0  RX - -  060F8009   [8]  41 F0 00 01 42 B1 C9 80
 (022.172126)  can0  TX - -  06080F81   [8]  10 00 00 02 00 00 00 00
 (022.173625)  can0  RX - -  060F8009   [8]  41 F0 00 02 00 00 00 00
 (022.174641)  can0  TX - -  06080F81   [8]  10 00 00 03 00 00 00 00
 (022.176129)  can0  RX - -  060F8009   [8]  41 F0 00 03 3C 50 00 00
 (022.177149)  can0  TX - -  06080F81   [8]  10 00 00 04 00 00 00 00
 (022.178635)  can0  RX - -  060F8009   [8]  41 F0 00 04 42 45 00 00
 (022.256341)  can0  RX - -  0757F803   [8]  01 10 10 00 01 01 00 00
 (022.316666)  can0  TX - -  06080F81   [8]  10 00 00 43 00 00 00 00
 (022.318105)  can0  RX - -  060F8009   [8]  42 F0 00 43 00 01 00 01
 (022.319096)  can0  TX - -  06080F81   [8]  10 00 00 4B 00 00 00 00
 (022.320561)  can0  RX - -  060F8009   [8]  42 F0 00 4B 00 00 00 03
 (022.321552)  can0  TX - -  06080F81   [8]  10 00 00 12 00 00 00 00
 (022.323064)  can0  RX - -  060F8009   [8]  41 F0 00 12 41 F0 00 00
 (022.324064)  can0  TX - -  06080F81   [8]  10 00 00 40 00 00 00 00
 (022.325577)  can0  RX - -  060F8009   [8]  42 F0 00 40 00 00 00 00
 (022.326584)  can0  TX - -  06080F81   [8]  10 00 00 48 00 00 00 00
 (022.328097)  can0  RX - -  060F8009   [8]  42 F0 00 48 00 00 00 00
 (022.329106)  can0  TX - -  06080F81   [8]  10 00 00 01 00 00 00 00
 (022.330585)  can0  RX - -  060F8009   [8]  41 F0 00 01 41 2D 4C 00
 (022.331585)  can0  TX - -  06080F81   [8]  10 00 00 02 00 00 00 00
 (022.333085)  can0  RX - -  060F8009   [8]  41 F0 00 02 00 00 00 00
 (022.334099)  can0  TX - -  06080F81   [8]  10 00 00 03 00 00 00 00
 (022.335601)  can0  RX - -  060F8009   [8]  41 F0 00 03 3C 50 00 00
 (022.336600)  can0  TX - -  06080F81   [8]  10 00 00 04 00 00 00 00
 (022.338050)  can0  RX - -  060F8009   [8]  41 F0 00 04 42 45 00 00
 (022.496647)  can0  TX - -  06080F81   [8]  10 00 00 43 00 00 00 00
 (022.498126)  can0  RX - -  060F8009   [8]  42 F0 00 43 00 01 00 01
 (022.499117)  can0  TX - -  06080F81   [8]  10 00 00 4B 00 00 00 00
 (022.500584)  can0  RX - -  060F8009   [8]  42 F0 00 4B 00 00 00 03
 (022.501573)  can0  TX - -  06080F81   [8]  10 00 00 12 00 00 00 00
 (022.503053)  can0  RX - -  060F8009   [8]  41 F0 00 12 41 F0 00 00
 (022.504053)  can0  TX - -  06080F81   [8]  10 00 00 40 00 00 00 00
 (022.505567)  can0  RX - -  060F8009   [8]  42 F0 00 40 00 40 00 00
 (022.506575)  can0  TX - -  06080F81   [8]  10 00 00 48 00 00 00 00
 (022.508086)  can0  RX - -  060F8009   [8]  42 F0 00 48 00 00 00 00
 (022.509096)  can0  TX - -  06080F81   [8]  10 00 00 01 00 00 00 00
 (022.510566)  can0  RX - -  060F8009   [8]  41 F0 00 01 40 A1 88 00
 (022.511566)  can0  TX - -  06080F81   [8]  10 00 00 02 00 00 00 00
 (022.513068)  can0  RX - -  060F8009   [8]  41 F0 00 02 00 00 00 00
 (022.514096)  can0  TX - -  06080F81   [8]  10 00 00 03 00 00 00 00
 (022.515408)  can0  RX - -  0757F80B   [8]  01 10 10 00 02 02 00 00
 (022.516415)  can0  TX - -  06080F81   [8]  10 00 00 04 00 00 00 00
 (022.517744)  can0  RX - -  060F8009   [8]  41 F0 00 03 3C 50 00 00
 (022.518928)  can0  RX - -  060F8009   [8]  41 F0 00 04 42 45 00 00
 (022.651426)  can0  RX - -  0757F803   [8]  01 10 10 00 01 01 00 00
 (022.676683)  can0  TX - -  06080F81   [8]  10 00 00 43 00 00 00 00
 (022.678122)  can0  RX - -  060F8009   [8]  42 F0 00 43 00 01 00 01
 (022.679150)  can0  TX - -  06080F81   [8]  10 00 00 4B 00 00 00 00
 (022.680692)  can0  RX - -  060F8009   [8]  42 F0 00 4B 00 00 00 03
 (022.681636)  can0  TX - -  06080F81   [8]  10 00 00 12 00 00 00 00
 (022.683128)  can0  RX - -  060F8009   [8]  41 F0 00 12 41 F0 00 00
 (022.684131)  can0  TX - -  06080F81   [8]  10 00 00 40 00 00 00 00
 (022.685637)  can0  RX - -  060F8009   [8]  42 F0 00 40 00 40 00 00
 (022.686633)  can0  TX - -  06080F81   [8]  10 00 00 48 00 00 00 00
 (022.688124)  can0  RX - -  060F8009   [8]  42 F0 00 48 00 00 00 00
 (022.689137)  can0  TX - -  06080F81   [8]  10 00 00 01 00 00 00 00
 (022.690635)  can0  RX - -  060F8009   [8]  41 F0 00 01 40 99 78 00
 (022.691617)  can0  TX - -  06080F81   [8]  10 00 00 02 00 00 00 00
 (022.693095)  can0  RX - -  060F8009   [8]  41 F0 00 02 00 00 00 00
 (022.694108)  can0  TX - -  06080F81   [8]  10 00 00 03 00 00 00 00
 (022.695726)  can0  RX - -  060F8009   [8]  41 F0 00 03 3C 50 00 00
 (022.696659)  can0  TX - -  06080F81   [8]  10 00 00 04 00 00 00 00
 (022.698099)  can0  RX - -  060F8009   [8]  41 F0 00 04 42 44 FC 00
 (022.837592)  can0  TX - -  06080F81   [8]  10 00 00 43 00 00 00 00
 (022.839013)  can0  RX - -  060F8009   [8]  42 F0 00 43 00 01 00 01
 (022.840004)  can0  TX - -  06080F81   [8]  10 00 00 4B 00 00 00 00
 (022.841552)  can0  RX - -  060F8009   [8]  42 F0 00 4B 00 00 00 03
 (022.842549)  can0  TX - -  06080F81   [8]  10 00 00 12 00 00 00 00
 (022.844041)  can0  RX - -  060F8009   [8]  41 F0 00 12 41 F0 00 00
 (022.845045)  can0  TX - -  06080F81   [8]  10 00 00 40 00 00 00 00
 (022.846547)  can0  RX - -  060F8009   [8]  42 F0 00 40 00 40 00 00
 (022.847568)  can0  TX - -  06080F81   [8]  10 00 00 48 00 00 00 00
 (022.849077)  can0  RX - -  060F8009   [8]  42 F0 00 48 00 00 00 00
 (022.850067)  can0  TX - -  06080F81   [8]  10 00 00 01 00 00 00 00
 (022.851554)  can0  RX - -  060F8009   [8]  41 F0 00 01 40 95 88 00
 (022.852556)  can0  TX - -  06080F81   [8]  10 00 00 02 00 00 00 00
 (022.854059)  can0  RX - -  060F8009   [8]  41 F0 00 02 00 00 00 00
 (022.855075)  can0  TX - -  06080F81   [8]  10 00 00 03 00 00 00 00
 (022.856589)  can0  RX - -  060F8009   [8]  41 F0 00 03 3C 50 00 00
 (022.857595)  can0  TX - -  06080F81   [8]  10 00 00 04 00 00 00 00
 (022.859066)  can0  RX - -  060F8009   [8]  41 F0 00 04 42 44 F4 00
 (022.910309)  can0  RX - -  0757F80B   [8]  01 10 10 00 02 02 00 00
 (023.017733)  can0  TX - -  06080F81   [8]  10 00 00 43 00 00 00 00
 (023.019184)  can0  RX - -  060F8009   [8]  42 F0 00 43 00 01 00 01
 (023.020174)  can0  TX - -  06080F81   [8]  10 00 00 4B 00 00 00 00
 (023.021655)  can0  RX - -  060F8009   [8]  42 F0 00 4B 00 00 00 03
 (023.022649)  can0  TX - -  06080F81   [8]  10 00 00 12 00 00 00 00
 (023.024141)  can0  RX - -  060F8009   [8]  41 F0 00 12 41 F0 00 00
 (023.025144)  can0  TX - -  06080F81   [8]  10 00 00 40 00 00 00 00
 (023.026650)  can0  RX - -  060F8009   [8]  42 F0 00 40 00 40 00 00
 (023.027654)  can0  TX - -  06080F81   [8]  10 00 00 48 00 00 00 00
 (023.029160)  can0  RX - -  060F8009   [8]  42 F0 00 48 00 00 00 00
 (023.030169)  can0  TX - -  06080F81   [8]  10 00 00 01 00 00 00 00
 (023.031629)  can0  RX - -  060F8009   [8]  41 F0 00 01 40 94 C8 00
 (023.032630)  can0  TX - -  06080F81   [8]  10 00 00 02 00 00 00 00
 (023.034137)  can0  RX - -  060F8009   [8]  41 F0 00 02 00 00 00 00
 (023.035161)  can0  TX - -  06080F81   [8]  10 00 00 03 00 00 00 00
 (023.036655)  can0  RX - -  060F8009   [8]  41 F0 00 03 3C 50 00 00
 (023.037657)  can0  TX - -  06080F81   [8]  10 00 00 04 00 00 00 00
 (023.039112)  can0  RX - -  060F8009   [8]  41 F0 00 04 42 44 EB 00
 (023.046321)  can0  RX - -  0757F803   [8]  01 10 10 00 01 01 00 00
 (023.177322)  can0  TX - -  06080F81   [8]  10 00 00 43 00 00 00 00
 (023.178795)  can0  RX - -  060F8009   [8]  42 F0 00 43 00 01 00 01
 (023.179785)  can0  TX - -  06080F81   [8]  10 00 00 4B 00 00 00 00
 (023.181633)  can0  RX - -  060F8009   [8]  42 F0 00 4B 00 00 00 03
 (023.182623)  can0  TX - -  06080F81   [8]  10 00 00 12 00 00 00 00
 (023.184117)  can0  RX - -  060F8009   [8]  41 F0 00 12 41 F0 00 00
 (023.185119)  can0  TX - -  06080F81   [8]  10 00 00 40 00 00 00 00
 (023.186619)  can0  RX - -  060F8009   [8]  42 F0 00 40 00 40 00 00
 (023.187621)  can0  TX - -  06080F81   [8]  10 00 00 48 00 00 00 00
 (023.189094)  can0  RX - -  060F8009   [8]  42 F0 00 48 00 00 00 00
 (023.190099)  can0  TX - -  06080F81   [8]  10 00 00 01 00 00 00 00
 (023.191567)  can0  RX - -  060F8009   [8]  41 F0 00 01 40 96 E0 00
 (023.192573)  can0  TX - -  06080F81   [8]  10 00 00 02 00 00 00 00
 (023.194053)  can0  RX - -  060F8009   [8]  41 F0 00 02 00 00 00 00
 (023.195073)  can0  TX - -  06080F81   [8]  10 00 00 03 00 00 00 00
 (023.196584)  can0  RX - -  060F8009   [8]  41 F0 00 03 3C 50 00 00
 (023.197589)  can0  TX - -  06080F81   [8]  10 00 00 04 00 00 00 00
 (023.199023)  can0  RX - -  060F8009   [8]  41 F0 00 04 42 44 E3 00
 (023.305409)  can0  RX - -  0757F80B   [8]  01 10 10 00 02 02 00 00
 (023.337079)  can0  TX - -  06080F81   [8]  10 00 00 43 00 00 00 00
 (023.338554)  can0  RX - -  060F8009   [8]  42 F0 00 43 00 01 00 01
 (023.339543)  can0  TX - -  06080F81   [8]  10 00 00 4B 00 00 00 00
 (023.341007)  can0  RX - -  060F8009   [8]  42 F0 00 4B 00 00 00 03
 (023.342050)  can0  TX - -  06080F81   [8]  10 00 00 12 00 00 00 00
 (023.343526)  can0  RX - -  060F8009   [8]  41 F0 00 12 41 F0 00 00
 (023.344531)  can0  TX - -  06080F81   [8]  10 00 00 40 00 00 00 00
 (023.346034)  can0  RX - -  060F8009   [8]  42 F0 00 40 00 40 00 00
 (023.347041)  can0  TX - -  06080F81   [8]  10 00 00 48 00 00 00 00
 (023.348536)  can0  RX - -  060F8009   [8]  42 F0 00 48 00 00 00 00
 (023.349553)  can0  TX - -  06080F81   [8]  10 00 00 01 00 00 00 00
 (023.351006)  can0  RX - -  060F8009   [8]  41 F0 00 01 40 9B 28 00
 (023.351988)  can0  TX - -  06080F81   [8]  10 00 00 02 00 00 00 00
 (023.353484)  can0  RX - -  060F8009   [8]  41 F0 00 02 00 00 00 00
 (023.354510)  can0  TX - -  06080F81   [8]  10 00 00 03 00 00 00 00
 (023.355955)  can0  RX - -  060F8009   [8]  41 F0 00 03 3C 50 00 00
 (023.356968)  can0  TX - -  06080F81   [8]  10 00 00 04 00 00 00 00
 (023.358412)  can0  RX - -  060F8009   [8]  41 F0 00 04 42 44 DB 00
 (023.441439)  can0  RX - -  075D0003   [8]  A0 01 10 08 01 80 00 81
 (023.496782)  can0  TX - -  06080F81   [8]  10 00 00 43 00 00 00 00
 (023.498263)  can0  RX - -  060F8009   [8]  42 F0 00 43 00 01 00 01
 (023.499299)  can0  TX - -  06080F81   [8]  10 00 00 4B 00 00 00 00
 (023.500709)  can0  RX - -  060F8009   [8]  42 F0 00 4B 00 00 00 03
 (023.501702)  can0  TX - -  06080F81   [8]  10 00 00 12 00 00 00 00
 (023.503223)  can0  RX - -  060F8009   [8]  41 F0 00 12 41 F0 00 00
 (023.504226)  can0  TX - -  06080F81   [8]  10 00 00 40 00 00 00 00
 (023.505732)  can0  RX - -  060F8009   [8]  42 F0 00 40 00 40 00 00
 (023.506735)  can0  TX - -  06080F81   [8]  10 00 00 48 00 00 00 00
 (023.508226)  can0  RX - -  060F8009   [8]  42 F0 00 48 00 00 00 00
 (023.509234)  can0  TX - -  06080F81   [8]  10 00 00 01 00 00 00 00
 (023.510705)  can0  RX - -  060F8009   [8]  41 F0 00 01 40 A0 68 00
 (023.511706)  can0  TX - -  06080F81   [8]  10 00 00 02 00 00 00 00
 (023.513202)  can0  RX - -  060F8009   [8]  41 F0 00 02 00 00 00 00
 (023.514227)  can0  TX - -  06080F81   [8]  10 00 00 03 00 00 00 00
 (023.515701)  can0  RX - -  060F8009   [8]  41 F0 00 03 3C 50 00 00
 (023.516715)  can0  TX - -  06080F81   [8]  10 00 00 04 00 00 00 00
 (023.518182)  can0  RX - -  060F8009   [8]  41 F0 00 04 42 44 D3 00
 (023.676938)  can0  TX - -  06080F81   [8]  10 00 00 43 00 00 00 00
 (023.678367)  can0  RX - -  060F8009   [8]  42 F0 00 43 00 01 00 01
 (023.679348)  can0  TX - -  06080F81   [8]  10 00 00 4B 00 00 00 00
 (023.680823)  can0  RX - -  060F8009   [8]  42 F0 00 4B 00 00 00 03
 (023.681824)  can0  TX - -  06080F81   [8]  10 00 00 12 00 00 00 00
 (023.683375)  can0  RX - -  060F8009   [8]  41 F0 00 12 41 F0 00 00
 (023.684359)  can0  TX - -  06080F81   [8]  10 00 00 40 00 00 00 00
 (023.685844)  can0  RX - -  060F8009   [8]  42 F0 00 40 00 40 00 00
 (023.686840)  can0  TX - -  06080F81   [8]  10 00 00 48 00 00 00 00
 (023.688334)  can0  RX - -  060F8009   [8]  42 F0 00 48 00 00 00 00
 (023.689319)  can0  TX - -  06080F81   [8]  10 00 00 01 00 00 00 00
 (023.690804)  can0  RX - -  060F8009   [8]  41 F0 00 01 40 A6 98 00
 (023.691815)  can0  TX - -  06080F81   [8]  10 00 00 02 00 00 00 00
 (023.693274)  can0  RX - -  060F8009   [8]  41 F0 00 02 00 00 00 00
 (023.694277)  can0  TX - -  06080F81   [8]  10 00 00 03 00 00 00 00
 (023.695766)  can0  RX - -  060F8009   [8]  41 F0 00 03 3C 50 00 00
 (023.696798)  can0  TX - -  06080F81   [8]  10 00 00 04 00 00 00 00
 (023.698243)  can0  RX - -  060F8009   [8]  41 F0 00 04 42 44 CC 00
 (023.700356)  can0  RX - -  0757F80B   [8]  01 10 10 00 02 02 00 00
 (023.836380)  can0  RX - -  0757F803   [8]  01 10 10 00 01 01 00 00
 (023.858731)  can0  TX - -  06080F81   [8]  10 00 00 43 00 00 00 00
 (023.860419)  can0  RX - -  060F8009   [8]  42 F0 00 43 00 01 00 01
 (023.861163)  can0  TX - -  06080F81   [8]  10 00 00 4B 00 00 00 00
 (023.862832)  can0  RX - -  060F8009   [8]  42 F0 00 4B 00 00 00 03
 (023.863594)  can0  TX - -  06080F81   [8]  10 00 00 12 00 00 00 00
 (023.865346)  can0  RX - -  060F8009   [8]  41 F0 00 12 41 F0 00 00
 (023.866111)  can0  TX - -  06080F81   [8]  10 00 00 40 00 00 00 00
 (023.867852)  can0  RX - -  060F8009   [8]  42 F0 00 40 00 40 00 00
 (023.868622)  can0  TX - -  06080F81   [8]  10 00 00 48 00 00 00 00
 (023.870390)  can0  RX - -  060F8009   [8]  42 F0 00 48 00 00 00 00
 (023.871139)  can0  TX - -  06080F81   [8]  10 00 00 01 00 00 00 00
 (023.872844)  can0  RX - -  060F8009   [8]  41 F0 00 01 40 AC D0 00
 (023.873612)  can0  TX - -  06080F81   [8]  10 00 00 02 00 00 00 00
 (023.875346)  can0  RX - -  060F8009   [8]  41 F0 00 02 00 00 00 00
 (023.876155)  can0  TX - -  06080F81   [8]  10 00 00 03 00 00 00 00
 (023.877842)  can0  RX - -  060F8009   [8]  41 F0 00 03 3C 50 00 00
 (023.878621)  can0  TX - -  06080F81   [8]  10 00 00 04 00 00 00 00
 (023.880355)  can0  RX - -  060F8009   [8]  41 F0 00 04 42 44 CC 00
 (024.019041)  can0  TX - -  06080F81   [8]  10 00 00 43 00 00 00 00
 (024.020669)  can0  RX - -  060F8009   [8]  42 F0 00 43 00 01 00 01
 (024.021508)  can0  TX - -  06080F81   [8]  10 00 00 4B 00 00 00 00
 (024.023235)  can0  RX - -  060F8009   [8]  42 F0 00 4B 00 00 00 03
 (024.024032)  can0  TX - -  06080F81   [8]  10 00 00 12 00 00 00 00
 (024.025739)  can0  RX - -  060F8009   [8]  41 F0 00 12 41 F0 00 00
 (024.026551)  can0  TX - -  06080F81   [8]  10 00 00 40 00 00 00 00
 (024.028219)  can0  RX - -  060F8009   [8]  42 F0 00 40 00 40 00 00
 (024.029071)  can0  TX - -  06080F81   [8]  10 00 00 48 00 00 00 00
 (024.030705)  can0  RX - -  060F8009   [8]  42 F0 00 48 00 00 00 00
 (024.031563)  can0  TX - -  06080F81   [8]  10 00 00 01 00 00 00 00
 (024.033195)  can0  RX - -  060F8009   [8]  41 F0 00 01 40 B2 38 00
 (024.034040)  can0  TX - -  06080F81   [8]  10 00 00 02 00 00 00 00
 (024.035682)  can0  RX - -  060F8009   [8]  41 F0 00 02 00 00 00 00
 (024.036582)  can0  TX - -  06080F81   [8]  10 00 00 03 00 00 00 00
 (024.038192)  can0  RX - -  060F8009   [8]  41 F0 00 03 3C 50 00 00
 (024.039091)  can0  TX - -  06080F81   [8]  10 00 00 04 00 00 00 00
 (024.040691)  can0  RX - -  060F8009   [8]  41 F0 00 04 42 44 CC 00
 (024.095742)  can0  RX - -  075D000B   [8]  A0 01 10 08 01 80 04 81
 (024.179633)  can0  TX - -  06080F81   [8]  10 00 00 43 00 00 00 00
 (024.181262)  can0  RX - -  060F8009   [8]  42 F0 00 43 00 01 00 01
 (024.182079)  can0  TX - -  06080F81   [8]  10 00 00 4B 00 00 00 00
 (024.183731)  can0  RX - -  060F8009   [8]  42 F0 00 4B 00 00 00 03
 (024.184545)  can0  TX - -  06080F81   [8]  10 00 00 12 00 00 00 00
 (024.186205)  can0  RX - -  060F8009   [8]  41 F0 00 12 41 F0 00 00
 (024.187018)  can0  TX - -  06080F81   [8]  10 00 00 40 00 00 00 00
 (024.188738)  can0  RX - -  060F8009   [8]  42 F0 00 40 00 40 00 00
 (024.189547)  can0  TX - -  06080F81   [8]  10 00 00 48 00 00 00 00
 (024.191224)  can0  RX - -  060F8009   [8]  42 F0 00 48 00 00 00 00
 (024.192045)  can0  TX - -  06080F81   [8]  10 00 00 01 00 00 00 00
 (024.193789)  can0  RX - -  060F8009   [8]  41 F0 00 01 40 B7 50 00
 (024.194552)  can0  TX - -  06080F81   [8]  10 00 00 02 00 00 00 00
 (024.196258)  can0  RX - -  060F8009   [8]  41 F0 00 02 00 00 00 00
 (024.197040)  can0  TX - -  06080F81   [8]  10 00 00 03 00 00 00 00
 (024.198690)  can0  RX - -  060F8009   [8]  41 F0 00 03 3C 50 00 00
 (024.199522)  can0  TX - -  06080F81   [8]  10 00 00 04 00 00 00 00
 (024.201172)  can0  RX - -  060F8009   [8]  41 F0 00 04 42 44 CC 00
 (024.207199)  can0  RX - -  0757F803   [8]  02 F0 00 02 01 01 00 00
 (024.231892)  can0  RX - -  075D0003   [8]  10 F0 03 C0 02 00 00 00
 (024.340718)  can0  TX - -  06080F81   [8]  10 00 00 43 00 00 00 00
 (024.342357)  can0  RX - -  060F8009   [8]  42 F0 00 43 00 01 00 01
 (024.343168)  can0  TX - -  06080F81   [8]  10 00 00 4B 00 00 00 00
 (024.344827)  can0  RX - -  060F8009   [8]  42 F0 00 4B 00 00 00 03
 (024.345625)  can0  TX - -  06080F81   [8]  10 00 00 12 00 00 00 00
 (024.347354)  can0  RX - -  060F8009   [8]  41 F0 00 12 41 F0 00 00
 (024.348082)  can0  TX - -  06080F81   [8]  10 00 00 40 00 00 00 00
 (024.349735)  can0  RX - -  060F8009   [8]  42 F0 00 40 00 40 00 00
 (024.350613)  can0  TX - -  06080F81   [8]  10 00 00 48 00 00 00 00
 (024.352220)  can0  RX - -  060F8009   [8]  42 F0 00 48 00 00 00 00
 (024.353101)  can0  TX - -  06080F81   [8]  10 00 00 01 00 00 00 00
 (024.354721)  can0  RX - -  060F8009   [8]  41 F0 00 01 40 BC 08 00
 (024.355596)  can0  TX - -  06080F81   [8]  10 00 00 02 00 00 00 00
 (024.357193)  can0  RX - -  060F8009   [8]  41 F0 00 02 00 00 00 00
 (024.358105)  can0  TX - -  06080F81   [8]  10 00 00 03 00 00 00 00
 (024.359708)  can0  RX - -  060F8009   [8]  41 F0 00 03 3C 50 00 00
 (024.360594)  can0  TX - -  06080F81   [8]  10 00 00 04 00 00 00 00
 (024.362227)  can0  RX - -  060F8009   [8]  41 F0 00 04 42 44 CC 00
 (024.490690)  can0  RX - -  0757F80B   [8]  01 10 10 00 02 02 00 00
 (024.542062)  can0  TX - -  06080F81   [8]  10 00 00 43 00 00 00 00
 (024.543725)  can0  RX - -  060F8009   [8]  42 F0 00 43 00 01 00 01
 (024.544534)  can0  TX - -  06080F81   [8]  10 00 00 4B 00 00 00 00
 (024.546210)  can0  RX - -  060F8009   [8]  42 F0 00 4B 00 00 00 03
 (024.547018)  can0  TX - -  06080F81   [8]  10 00 00 12 00 00 00 00
 (024.548684)  can0  RX - -  060F8009   [8]  41 F0 00 12 41 F0 00 00
 (024.549499)  can0  TX - -  06080F81   [8]  10 00 00 40 00 00 00 00
 (024.551187)  can0  RX - -  060F8009   [8]  42 F0 00 40 00 40 00 00
 (024.552037)  can0  TX - -  06080F81   [8]  10 00 00 48 00 00 00 00
 (024.553676)  can0  RX - -  060F8009   [8]  42 F0 00 48 00 00 00 00
 (024.554533)  can0  TX - -  06080F81   [8]  10 00 00 01 00 00 00 00
 (024.556203)  can0  RX - -  060F8009   [8]  41 F0 00 01 40 C1 58 00
 (024.557054)  can0  TX - -  06080F81   [8]  10 00 00 02 00 00 00 00
 (024.558721)  can0  RX - -  060F8009   [8]  41 F0 00 02 00 00 00 00
 (024.559582)  can0  TX - -  06080F81   [8]  10 00 00 03 00 00 00 00
 (024.561253)  can0  RX - -  060F8009   [8]  41 F0 00 03 3C 50 00 00
 (024.562106)  can0  TX - -  06080F81   [8]  10 00 00 04 00 00 00 00
 (024.563691)  can0  RX - -  060F8009   [8]  41 F0 00 04 42 44 CC 00
 (024.626726)  can0  RX - -  0757F803   [8]  01 10 10 00 01 01 00 00
 (024.784975)  can0  TX - -  06080F81   [8]  10 00 00 43 00 00 00 00
 (024.786483)  can0  RX - -  060F8009   [8]  42 F0 00 43 00 01 00 01
 (024.787471)  can0  TX - -  06080F81   [8]  10 00 00 4B 00 00 00 00
 (024.788952)  can0  RX - -  060F8009   [8]  42 F0 00 4B 00 00 00 03
 (024.789972)  can0  TX - -  06080F81   [8]  10 00 00 12 00 00 00 00
 (024.791585)  can0  RX - -  060F8009   [8]  41 F0 00 12 41 F0 00 00
 (024.792568)  can0  TX - -  06080F81   [8]  10 00 00 40 00 00 00 00
 (024.794096)  can0  RX - -  060F8009   [8]  42 F0 00 40 00 40 00 00
 (024.795059)  can0  TX - -  06080F81   [8]  10 00 00 48 00 00 00 00
 (024.796621)  can0  RX - -  060F8009   [8]  42 F0 00 48 00 00 00 00
 (024.797636)  can0  TX - -  06080F81   [8]  10 00 00 01 00 00 00 00
 (024.799092)  can0  RX - -  060F8009   [8]  41 F0 00 01 40 C6 D8 00
 (024.800096)  can0  TX - -  06080F81   [8]  10 00 00 02 00 00 00 00
 (024.801613)  can0  RX - -  060F8009   [8]  41 F0 00 02 00 00 00 00
 (024.802606)  can0  TX - -  06080F81   [8]  10 00 00 03 00 00 00 00
 (024.804108)  can0  RX - -  060F8009   [8]  41 F0 00 03 3C 50 00 00
 (024.805117)  can0  TX - -  06080F81   [8]  10 00 00 04 00 00 00 00
 (024.806616)  can0  RX - -  060F8009   [8]  41 F0 00 04 42 44 CC 00
 (024.860833)  can0  RX - -  0757F80B   [8]  02 F0 00 02 02 02 00 00
 (024.885476)  can0  RX - -  075D000B   [8]  10 F0 03 C0 02 00 00 00
 (024.945991)  can0  TX - -  06080F81   [8]  10 00 00 43 00 00 00 00
 (024.947426)  can0  RX - -  060F8009   [8]  42 F0 00 43 00 01 00 01
 (024.948416)  can0  TX - -  06080F81   [8]  10 00 00 4B 00 00 00 00
 (024.949894)  can0  RX - -  060F8009   [8]  42 F0 00 4B 00 00 00 03
 (024.950887)  can0  TX - -  06080F81   [8]  10 00 00 12 00 00 00 00
 (024.952409)  can0  RX - -  060F8009   [8]  41 F0 00 12 41 F0 00 00
 (024.953407)  can0  TX - -  06080F81   [8]  10 00 00 40 00 00 00 00
 (024.954949)  can0  RX - -  060F8009   [8]  42 F0 00 40 00 40 00 00
 (024.955952)  can0  TX - -  06080F81   [8]  10 00 00 48 00 00 00 00
 (024.957416)  can0  RX - -  060F8009   [8]  42 F0 00 48 00 00 00 00
 (024.958424)  can0  TX - -  06080F81   [8]  10 00 00 01 00 00 00 00
 (024.959921)  can0  RX - -  060F8009   [8]  41 F0 00 01 40 CA 10 00
 (024.960922)  can0  TX - -  06080F81   [8]  10 00 00 02 00 00 00 00
 (024.962436)  can0  RX - -  060F8009   [8]  41 F0 00 02 00 00 00 00
 (024.963451)  can0  TX - -  06080F81   [8]  10 00 00 03 00 00 00 00
 (024.964964)  can0  RX - -  060F8009   [8]  41 F0 00 03 3C 50 00 00
 (024.965970)  can0  TX - -  06080F81   [8]  10 00 00 04 00 00 00 00
 (024.967417)  can0  RX - -  060F8009   [8]  41 F0 00 04 42 44 C6 00
 (025.021491)  can0  RX - -  0757F803   [8]  01 10 10 00 01 01 00 00
 (025.105544)  can0  TX - -  06080F81   [8]  10 00 00 43 00 00 00 00
 (025.107029)  can0  RX - -  060F8009   [8]  42 F0 00 43 00 01 00 01
 (025.108096)  can0  TX - -  06080F81   [8]  10 00 00 4B 00 00 00 00
 (025.109514)  can0  RX - -  060F8009   [8]  42 F0 00 4B 00 00 00 03
 (025.110500)  can0  TX - -  06080F81   [8]  10 00 00 12 00 00 00 00
 (025.112015)  can0  RX - -  060F8009   [8]  41 F0 00 12 41 F0 00 00
 (025.112999)  can0  TX - -  06080F81   [8]  10 00 00 40 00 00 00 00
 (025.114482)  can0  RX - -  060F8009   [8]  42 F0 00 40 00 40 00 00
 (025.115486)  can0  TX - -  06080F81   [8]  10 00 00 48 00 00 00 00
 (025.117039)  can0  RX - -  060F8009   [8]  42 F0 00 48 00 00 00 00
 (025.117991)  can0  TX - -  06080F81   [8]  10 00 00 01 00 00 00 00
 (025.119501)  can0  RX - -  060F8009   [8]  41 F0 00 01 40 CD 08 00
 (025.120519)  can0  TX - -  06080F81   [8]  10 00 00 02 00 00 00 00
 (025.121939)  can0  RX - -  060F8009   [8]  41 F0 00 02 00 00 00 00
 (025.122961)  can0  TX - -  06080F81   [8]  10 00 00 03 00 00 00 00
 (025.124463)  can0  RX - -  060F8009   [8]  41 F0 00 03 3C 50 00 00
 (025.125466)  can0  TX - -  06080F81   [8]  10 00 00 04 00 00 00 00
 (025.126943)  can0  RX - -  060F8009   [8]  41 F0 00 04 42 44 BE 00
 (025.265462)  can0  TX - -  06080F81   [8]  10 00 00 43 00 00 00 00
 (025.266891)  can0  RX - -  060F8009   [8]  42 F0 00 43 00 01 00 01
 (025.267881)  can0  TX - -  06080F81   [8]  10 00 00 4B 00 00 00 00
 (025.269322)  can0  RX - -  060F8009   [8]  42 F0 00 4B 00 00 00 03
 (025.270313)  can0  TX - -  06080F81   [8]  10 00 00 12 00 00 00 00
 (025.271834)  can0  RX - -  060F8009   [8]  41 F0 00 12 41 F0 00 00
 (025.272835)  can0  TX - -  06080F81   [8]  10 00 00 40 00 00 00 00
 (025.274330)  can0  RX - -  060F8009   [8]  42 F0 00 40 00 40 00 00
 (025.275338)  can0  TX - -  06080F81   [8]  10 00 00 48 00 00 00 00
 (025.276811)  can0  RX - -  060F8009   [8]  42 F0 00 48 00 00 00 00
 (025.277822)  can0  TX - -  06080F81   [8]  10 00 00 01 00 00 00 00
 (025.279298)  can0  RX - -  060F8009   [8]  41 F0 00 01 40 CF C8 00
 (025.280277)  can0  TX - -  06080F81   [8]  10 00 00 02 00 00 00 00
 (025.281615)  can0  RX - -  0757F80B   [8]  01 10 10 00 02 02 00 00
 (025.282640)  can0  TX - -  06080F81   [8]  10 00 00 03 00 00 00 00
 (025.283975)  can0  RX - -  060F8009   [8]  41 F0 00 02 00 00 00 00
 (025.284985)  can0  TX - -  06080F81   [8]  10 00 00 04 00 00 00 00
 (025.286316)  can0  RX - -  060F8009   [8]  41 F0 00 03 3C 50 00 00
 (025.287444)  can0  RX - -  060F8009   [8]  41 F0 00 04 42 44 B6 00
 (025.416431)  can0  RX - -  0757F803   [8]  01 10 10 00 01 01 00 00
 (025.426729)  can0  TX - -  06080F81   [8]  10 00 00 43 00 00 00 00
 (025.428186)  can0  RX - -  060F8009   [8]  42 F0 00 43 00 01 00 01
 (025.429177)  can0  TX - -  06080F81   [8]  10 00 00 4B 00 00 00 00
 (025.430656)  can0  RX - -  060F8009   [8]  42 F0 00 4B 00 00 00 03
 (025.431648)  can0  TX - -  06080F81   [8]  10 00 00 12 00 00 00 00
 (025.433145)  can0  RX - -  060F8009   [8]  41 F0 00 12 41 F0 00 00
 (025.434145)  can0  TX - -  06080F81   [8]  10 00 00 40 00 00 00 00
 (025.435681)  can0  RX - -  060F8009   [8]  42 F0 00 40 00 40 00 00
 (025.436689)  can0  TX - -  06080F81   [8]  10 00 00 48 00 00 00 00
 (025.438201)  can0  RX - -  060F8009   [8]  42 F0 00 48 00 00 00 00
 (025.439209)  can0  TX - -  06080F81   [8]  10 00 00 01 00 00 00 00
 (025.440674)  can0  RX - -  060F8009   [8]  41 F0 00 01 40 D2 48 00
 (025.441674)  can0  TX - -  06080F81   [8]  10 00 00 02 00 00 00 00
 (025.443180)  can0  RX - -  060F8009   [8]  41 F0 00 02 00 00 00 00
 (025.444195)  can0  TX - -  06080F81   [8]  10 00 00 03 00 00 00 00
 (025.445683)  can0  RX - -  060F8009   [8]  41 F0 00 03 3C 50 00 00
 (025.446696)  can0  TX - -  06080F81   [8]  10 00 00 04 00 00 00 00
 (025.448163)  can0  RX - -  060F8009   [8]  41 F0 00 04 42 44 AE 00
 (025.607039)  can0  TX - -  06080F81   [8]  10 00 00 43 00 00 00 00
 (025.608505)  can0  RX - -  060F8009   [8]  42 F0 00 43 00 01 00 01
 (025.609494)  can0  TX - -  06080F81   [8]  10 00 00 4B 00 00 00 00
 (025.610975)  can0  RX - -  060F8009   [8]  42 F0 00 4B 00 00 00 03
 (025.611978)  can0  TX - -  06080F81   [8]  10 00 00 12 00 00 00 00
 (025.613492)  can0  RX - -  060F8009   [8]  41 F0 00 12 41 F0 00 00
 (025.614483)  can0  TX - -  06080F81   [8]  10 00 00 40 00 00 00 00
 (025.616003)  can0  RX - -  060F8009   [8]  42 F0 00 40 00 40 00 00
 (025.617094)  can0  TX - -  06080F81   [8]  10 00 00 48 00 00 00 00
 (025.618522)  can0  RX - -  060F8009   [8]  42 F0 00 48 00 00 00 00
 (025.619505)  can0  TX - -  06080F81   [8]  10 00 00 01 00 00 00 00
 (025.621012)  can0  RX - -  060F8009   [8]  41 F0 00 01 40 D5 00 00
 (025.622026)  can0  TX - -  06080F81   [8]  10 00 00 02 00 00 00 00
 (025.623521)  can0  RX - -  060F8009   [8]  41 F0 00 02 00 00 00 00
 (025.624523)  can0  TX - -  06080F81   [8]  10 00 00 03 00 00 00 00
 (025.626042)  can0  RX - -  060F8009   [8]  41 F0 00 03 3C 50 00 00
 (025.627020)  can0  TX - -  06080F81   [8]  10 00 00 04 00 00 00 00
 (025.628457)  can0  RX - -  060F8009   [8]  41 F0 00 04 42 44 A5 00
 (025.675461)  can0  RX - -  0757F80B   [8]  01 10 10 00 02 02 00 00
 (025.790807)  can0  TX - -  06080F81   [8]  10 00 00 43 00 00 00 00
 (025.792252)  can0  RX - -  060F8009   [8]  42 F0 00 43 00 01 00 01
 (025.793271)  can0  TX - -  06080F81   [8]  10 00 00 4B 00 00 00 00
 (025.794738)  can0  RX - -  060F8009   [8]  42 F0 00 4B 00 00 00 03
 (025.795712)  can0  TX - -  06080F81   [8]  10 00 00 12 00 00 00 00
 (025.797196)  can0  RX - -  060F8009   [8]  41 F0 00 12 41 F0 00 00
 (025.798179)  can0  TX - -  06080F81   [8]  10 00 00 40 00 00 00 00
 (025.799714)  can0  RX - -  060F8009   [8]  42 F0 00 40 00 40 00 00
 (025.800711)  can0  TX - -  06080F81   [8]  10 00 00 48 00 00 00 00
 (025.802192)  can0  RX - -  060F8009   [8]  42 F0 00 48 00 00 00 00
 (025.803187)  can0  TX - -  06080F81   [8]  10 00 00 01 00 00 00 00
